# HZ S RI R 50
1.00000000000000000000e+007 +1.07782656050742410179e-004 +5.63069072200102693423e-004 +9.95325720254848222979e-001 -2.62891804964234011843e-002 +9.95325720254848222979e-001 -2.62891804964234011843e-002 +1.07782656050742410179e-004 +5.63069072200102693423e-004
1.37437500000000000000e+007 +1.37382232211937741623e-004 +7.72356558115694803029e-004 +9.94250488118665676218e-001 -3.60996063546973056102e-002 +9.94250488118665676218e-001 -3.60996063546973056102e-002 +1.37382232211937741623e-004 +7.72356558115694803029e-004
1.74875000000000000000e+007 +1.69071057857778865152e-004 +9.80880718582134280420e-004 +9.93172534382950167320e-001 -4.58956765808346128788e-002 +9.93172534382950167320e-001 -4.58956765808346128788e-002 +1.69071057857778865152e-004 +9.80880718582134280420e-004
2.12312500000000000000e+007 +2.03458131667744933314e-004 +1.18861046852988079189e-003 +9.92062910036950684756e-001 -5.56775926761977901780e-002 +9.92062910036950684756e-001 -5.56775926761977901780e-002 +2.03458131667744933314e-004 +1.18861046852988079189e-003
2.49750000000000000000e+007 +2.40882848452431510330e-004 +1.39550104318025120463e-003 +9.90905165325665415743e-001 -6.54452309673283910696e-002 +9.90905165325665415743e-001 -6.54452309673283910696e-002 +2.40882848452431510330e-004 +1.39550104318025120463e-003
2.87187500000000000000e+007 +2.81553125172611133295e-004 +1.60149961715600375363e-003 +9.89688922388648473216e-001 -7.51982729434911428834e-002 +9.89688922388648473216e-001 -7.51982729434911428834e-002 +2.81553125172611133295e-004 +1.60149961715600375363e-003
3.24625000000000000000e+007 +3.25603677774334045441e-004 +1.80654821835054255931e-003 +9.88407161818109392115e-001 -8.49362726300798842605e-002 +9.88407161818109392115e-001 -8.49362726300798842605e-002 +3.25603677774334045441e-004 +1.80654821835054255931e-003
3.62062500000000000000e+007 +3.73124510626145872941e-004 +2.01058541871411856211e-003 +9.87054895269978138650e-001 -9.46586954803309565953e-002 +9.87054895269978138650e-001 -9.46586954803309565953e-002 +3.73124510626145872941e-004 +2.01058541871411856211e-003
3.99500000000000000000e+007 +4.24176345625986881901e-004 +2.21354739738658734885e-003 +9.85628446099658273027e-001 -1.04364942643018862589e-001 +9.85628446099658273027e-001 -1.04364942643018862589e-001 +4.24176345625986881901e-004 +2.21354739738658734885e-003
4.36937500000000000000e+007 +4.78799637070980083943e-004 +2.41536865136108115995e-003 +9.84125028790258316036e-001 -1.14054367013315866020e-001 +9.84125028790258316036e-001 -1.14054367013315866020e-001 +4.78799637070980083943e-004 +2.41536865136108115995e-003
4.74375000000000000000e+007 +5.37020157782613720941e-004 +2.61598249430899454718e-003 +9.82542488211313291835e-001 -1.23726284342753845014e-001 +9.82542488211313291835e-001 -1.23726284342753845014e-001 +5.37020157782613720941e-004 +2.61598249430899454718e-003
5.11812500000000000000e+007 +5.98852627375813279138e-004 +2.81532142112688116634e-003 +9.80879130215896344325e-001 -1.33379981216066340055e-001 +9.80879130215896344325e-001 -1.33379981216066340055e-001 +5.98852627375813279138e-004 +2.81532142112688116634e-003
5.49250000000000000000e+007 +6.64303161761758162278e-004 +3.01331738362912385926e-003 +9.79133607280995299504e-001 -1.43014720954333762748e-001 +9.79133607280995299504e-001 -1.43014720954333762748e-001 +6.64303161761758162278e-004 +3.01331738362912385926e-003
5.86687500000000000000e+007 +7.33370981391867301537e-004 +3.20990200531472667789e-003 +9.77304838798892849816e-001 -1.52629748096299366900e-001 +9.77304838798892849816e-001 -1.52629748096299366900e-001 +7.33370981391867301537e-004 +3.20990200531472667789e-003
6.24125000000000000000e+007 +8.06049636086686341167e-004 +3.40500675308506080968e-003 +9.75391953994805716022e-001 -1.62224291875476517300e-001 +9.75391953994805716022e-001 -1.62224291875476517300e-001 +8.06049636086686341167e-004 +3.40500675308506080968e-003
6.61562500000000000000e+007 +8.82327904708633012180e-004 +3.59856307775014176362e-003 +9.73394250085854562116e-001 -1.71797568969861008670e-001 +9.73394250085854562116e-001 -1.71797568969861008670e-001 +8.82327904708633012180e-004 +3.59856307775014176362e-003
6.99000000000000000000e+007 +9.62190470241302414633e-004 +3.79050253139169221472e-003 +9.71311160985703692106e-001 -1.81348785713141835707e-001 +9.71311160985703692106e-001 -1.81348785713141835707e-001 +9.62190470241302414633e-004 +3.79050253139169221472e-003
7.36437500000000000000e+007 +1.04561843611961102253e-003 +3.98075686722221180197e-003 +9.69142233478222814291e-001 -1.90877139899601977469e-001 +9.69142233478222814291e-001 -1.90877139899601977469e-001 +1.04561843611961102253e-003 +3.98075686722221180197e-003
7.73875000000000000000e+007 +1.13258972806514509983e-003 +4.16925812596694120998e-003 +9.66887108790762339616e-001 -2.00381822277272914068e-001 +9.66887108790762339616e-001 -2.00381822277272914068e-001 +1.13258972806514509983e-003 +4.16925812596694120998e-003
8.11312500000000000000e+007 +1.22307941186407861250e-003 +4.35593871170158065259e-003 +9.64545508142601981660e-001 -2.09862017798319172579e-001 +9.64545508142601981660e-001 -2.09862017798319172579e-001 +1.22307941186407861250e-003 +4.35593871170158065259e-003
8.48750000000000000000e+007 +1.31705994845426996483e-003 +4.54073145931703590211e-003 +9.62117221267754452185e-001 -2.19316906677838929784e-001 +9.62117221267754452185e-001 -2.19316906677838929784e-001 +1.31705994845426996483e-003 +4.54073145931703590211e-003
8.86187500000000000000e+007 +1.41450140159742575319e-003 +4.72356969524366163138e-003 +9.59602097195911607486e-001 -2.28745665299654760139e-001 +9.59602097195911607486e-001 -2.28745665299654760139e-001 +1.41450140159742575319e-003 +4.72356969524366163138e-003
9.23625000000000000000e+007 +1.51537160923867052914e-003 +4.90438729267899872766e-003 +9.57000036770475848158e-001 -2.38147466998576667896e-001 +9.57000036770475848158e-001 -2.38147466998576667896e-001 +1.51537160923867052914e-003 +4.90438729267899872766e-003
9.61062500000000000000e+007 +1.61963632674324144005e-003 +5.08311872227854098100e-003 +9.54310986518867365724e-001 -2.47521482741944798267e-001 +9.54310986518867365724e-001 -2.47521482741944798267e-001 +1.61963632674324144005e-003 +5.08311872227854098100e-003
9.98500000000000000000e+007 +1.72725934813353380545e-003 +5.25969909905778156695e-003 +9.51534933587055209436e-001 -2.56866881728311624578e-001 +9.51534933587055209436e-001 -2.56866881728311624578e-001 +1.72725934813353380545e-003 +5.25969909905778156695e-003
1.03593750000000000000e+008 +1.83820260996106401435e-003 +5.43406422609445018818e-003 +9.48671901519977933681e-001 -2.66182831917384732368e-001 +9.48671901519977933681e-001 -2.66182831917384732368e-001 +1.83820260996106401435e-003 +5.43406422609445018818e-003
1.07337500000000000000e+008 +1.95242628136106980384e-003 +5.60615063549946193028e-003 +9.45721946720486039695e-001 -2.75468500502507263050e-001 +9.45721946720486039695e-001 -2.75468500502507263050e-001 +1.95242628136106980384e-003 +5.60615063549946193028e-003
1.11081250000000000000e+008 +2.06988884303324974234e-003 +5.77589562703118356013e-003 +9.42685155457142376356e-001 -2.84723054334764413831e-001 +9.42685155457142376356e-001 -2.84723054334764413831e-001 +2.06988884303324974234e-003 +5.77589562703118356013e-003
1.14825000000000000000e+008 +2.19054715729082331507e-003 +5.94323730465612896923e-003 +9.39561641319463958233e-001 -2.93945660306092426683e-001 +9.39561641319463958233e-001 -2.93945660306092426683e-001 +2.19054715729082331507e-003 +5.94323730465612896923e-003
1.18568750000000000000e+008 +2.31435653086438548887e-003 +6.10811461130051757545e-003 +9.36351543040560785336e-001 -3.03135485697430762109e-001 +9.36351543040560785336e-001 -3.03135485697430762109e-001 +2.31435653086438548887e-003 +6.10811461130051757545e-003
1.22312500000000000000e+008 +2.44127077180060925859e-003 +6.27046736199569562653e-003 +9.33055022623472729570e-001 -3.12291698496891312331e-001 +9.33055022623472729570e-001 -3.12291698496891312331e-001 +2.44127077180060925859e-003 +6.27046736199569562653e-003
1.26056250000000000000e+008 +2.57124224152586577236e-003 +6.43023627557940541388e-003 +9.29672263720112912466e-001 -3.21413467692072685189e-001 +9.29672263720112912466e-001 -3.21413467692072685189e-001 +2.57124224152586577236e-003 +6.43023627557940541388e-003
1.29800000000000000000e+008 +2.70422190293859643004e-003 +6.58736300509234814354e-003 +9.26203470221551028452e-001 -3.30499963539964303205e-001 +9.26203470221551028452e-001 -3.30499963539964303205e-001 +2.70422190293859643004e-003 +6.58736300509234814354e-003
1.33543750000000000000e+008 +2.84015936522808223885e-003 +6.74179016697934972713e-003 +9.22648865026066133943e-001 -3.39550357817327230769e-001 +9.22648865026066133943e-001 -3.39550357817327230769e-001 +2.84015936522808223885e-003 +6.74179016697934972713e-003
1.37287500000000000000e+008 +2.97900292599063499024e-003 +6.89346136919220201650e-003 +9.19008688957499431105e-001 -3.48563824053992166174e-001 +9.19008688957499431105e-001 -3.48563824053992166174e-001 +2.97900292599063499024e-003 +6.89346136919220201650e-003
1.41031250000000000000e+008 +3.12069961110931657841e-003 +7.04232123827052466231e-003 +9.15283199811282366376e-001 -3.57539537751142000310e-001 +9.15283199811282366376e-001 -3.57539537751142000310e-001 +3.12069961110931657841e-003 +7.04232123827052466231e-003
1.44775000000000000000e+008 +3.26519521278178983387e-003 +7.18831544546673015250e-003 +9.11472671509411691559e-001 -3.66476676586335259334e-001 +9.11472671509411691559e-001 -3.66476676586335259334e-001 +3.26519521278178983387e-003 +7.18831544546673015250e-003
1.48518750000000000000e+008 +3.41243432601465255388e-003 +7.33139073197087726835e-003 +9.07577393348779515314e-001 -3.75374420606783221199e-001 +9.07577393348779515314e-001 -3.75374420606783221199e-001 +3.41243432601465255388e-003 +7.33139073197087726835e-003
1.52262500000000000000e+008 +3.56236038384776052684e-003 +7.47149493328051143154e-003 +9.03597669329813779626e-001 -3.84231952412167843125e-001 +9.03597669329813779626e-001 -3.84231952412167843125e-001 +3.56236038384776052684e-003 +7.47149493328051143154e-003
1.56006250000000000000e+008 +3.71491569152924494893e-003 +7.60857700275581385480e-003 +8.99533817554467263200e-001 -3.93048457328121436660e-001 +8.99533817554467263200e-001 -3.93048457328121436660e-001 +3.71491569152924494893e-003 +7.60857700275581385480e-003
1.59750000000000000000e+008 +3.87004145982452855967e-003 +7.74258703439154125775e-003 +8.95386169684298294236e-001 -4.01823123571332097015e-001 +8.95386169684298294236e-001 -4.01823123571332097015e-001 +3.87004145982452855967e-003 +7.74258703439154125775e-003
1.63493750000000000000e+008 +4.02767783761430638034e-003 +7.87347628483497409546e-003 +8.91155070450793229675e-001 -4.10555142407113604630e-001 +8.91155070450793229675e-001 -4.10555142407113604630e-001 +4.02767783761430638034e-003 +7.87347628483497409546e-003
1.67237500000000000000e+008 +4.18776394391023529251e-003 +8.00119719467163627302e-003 +8.86840877211252376355e-001 -4.19243708300171880055e-001 +8.86840877211252376355e-001 -4.19243708300171880055e-001 +4.18776394391023529251e-003 +8.00119719467163627302e-003
1.70981250000000000000e+008 +4.35023789939815389710e-003 +8.12570340900008007690e-003 +8.82443959544525147187e-001 -4.27888019059206758943e-001 +8.82443959544525147187e-001 -4.27888019059206758943e-001 +4.35023789939815389710e-003 +8.12570340900008007690e-003
1.74725000000000000000e+008 +4.51503685760039526198e-003 +8.24694979731168190118e-003 +8.77964698881702809707e-001 -4.36487275975910860026e-001 +8.77964698881702809707e-001 -4.36487275975910860026e-001 +4.51503685760039526198e-003 +8.24694979731168190118e-003
1.78468750000000000000e+008 +4.68209703573429711354e-003 +8.36489247268882435415e-003 +8.73403488167547314980e-001 -4.45040683958855376456e-001 +8.73403488167547314980e-001 -4.45040683958855376456e-001 +4.68209703573429711354e-003 +8.36489247268882435415e-003
1.82212500000000000000e+008 +4.85135374533290225640e-003 +8.47948881033447170175e-003 +8.68760731549022335862e-001 -4.53547451662701772701e-001 +8.68760731549022335862e-001 -4.53547451662701772701e-001 +4.85135374533290225640e-003 +8.47948881033447170175e-003
1.85956250000000000000e+008 +5.02274142268254331772e-003 +8.59069746544233181496e-003 +8.64036844087769040357e-001 -4.62006791613119582873e-001 +8.64036844087769040357e-001 -4.62006791613119582873e-001 +5.02274142268254331772e-003 +8.59069746544233181496e-003
1.89700000000000000000e+008 +5.19619365912344245012e-003 +8.69847839041561557427e-003 +8.59232251493789789265e-001 -4.70417920327751926113e-001 +8.59232251493789789265e-001 -4.70417920327751926113e-001 +5.19619365912344245012e-003 +8.69847839041561557427e-003
1.93443750000000000000e+008 +5.37164323125245528334e-003 +8.80279285144170559052e-003 +8.54347389877952001491e-001 -4.78780058433531940931e-001 +8.54347389877952001491e-001 -4.78780058433531940931e-001 +5.37164323125245528334e-003 +8.80279285144170559052e-003
1.97187500000000000000e+008 +5.54902213106047044466e-003 +8.90360344442847270741e-003 +8.49382705521225078726e-001 -4.87092430780618701469e-001 +8.49382705521225078726e-001 -4.87092430780618701469e-001 +5.54902213106047044466e-003 +8.90360344442847270741e-003
2.00931250000000000000e+008 +5.72826159603120714514e-003 +9.00087411030653893051e-003 +8.44338654658823961618e-001 -4.95354266553189148681e-001 +8.44338654658823961618e-001 -4.95354266553189148681e-001 +5.72826159603120714514e-003 +9.00087411030653893051e-003
2.04675000000000000000e+008 +5.90929213922358146510e-003 +9.09457014970109847707e-003 +8.39215703277654934134e-001 -5.03564799377307137362e-001 +8.39215703277654934134e-001 -5.03564799377307137362e-001 +5.90929213922358146510e-003 +9.09457014970109847707e-003
2.08418750000000000000e+008 +6.09204357935703207788e-003 +9.18465823697829988892e-003 +8.34014326925649362998e-001 -5.11723267426054118090e-001 +8.34014326925649362998e-001 -5.11723267426054118090e-001 +6.09204357935703207788e-003 +9.18465823697829988892e-003
2.12162500000000000000e+008 +6.27644507091210373390e-003 +9.27110643366491765649e-003 +8.28735010531738258699e-001 -5.19828913522099034239e-001 +8.28735010531738258699e-001 -5.19828913522099034239e-001 +6.27644507091210373390e-003 +9.27110643366491765649e-003
2.15906250000000000000e+008 +6.46242513426095645940e-003 +9.35388420124809438772e-003 +8.23378248235366538843e-001 -5.27880985237858424419e-001 +8.23378248235366538843e-001 -5.27880985237858424419e-001 +6.46242513426095645940e-003 +9.35388420124809438772e-003
2.19650000000000000000e+008 +6.64991168583420246690e-003 +9.43296241335271450079e-003 +8.17944543224567888196e-001 -5.35878734993388672336e-001 +8.17944543224567888196e-001 -5.35878734993388672336e-001 +6.64991168583420246690e-003 +9.43296241335271450079e-003
2.23393750000000000000e+008 +6.83883206833178422523e-003 +9.50831336729940530816e-003 +8.12434407581732020986e-001 -5.43821420152133194748e-001 +8.12434407581732020986e-001 -5.43821420152133194748e-001 +6.83883206833178422523e-003 +9.50831336729940530816e-003
2.27137500000000000000e+008 +7.02911308098309612485e-003 +9.57991079504492623609e-003 +8.06848362136294183777e-001 -5.51708303114639253550e-001 +8.06848362136294183777e-001 -5.51708303114639253550e-001 +7.02911308098309612485e-003 +9.57991079504492623609e-003
2.30881250000000000000e+008 +7.22068100985785721324e-003 +9.64772987350378044558e-003 +8.01186936323655563008e-001 -5.59538651410346643544e-001 +8.01186936323655563008e-001 -5.59538651410346643544e-001 +7.22068100985785721324e-003 +9.64772987350378044558e-003
2.34625000000000000000e+008 +7.41346165822949400986e-003 +9.71174723425242969466e-003 +7.95450668049720532871e-001 -5.67311737787540515399e-001 +7.95450668049720532871e-001 -5.67311737787540515399e-001 +7.41346165822949400986e-003 +9.71174723425242969466e-003
2.38368750000000000000e+008 +7.60738037699176024992e-003 +9.77194097261770144858e-003 +7.89640103560502071289e-001 -5.75026840301551378509e-001 +7.89640103560502071289e-001 -5.75026840301551378509e-001 +7.60738037699176024992e-003 +9.77194097261770144858e-003
2.42112500000000000000e+008 +7.80236209512555692336e-003 +9.82829065614743320467e-003 +7.83755797316300517608e-001 -5.82683242401279555267e-001 +7.83755797316300517608e-001 -5.82683242401279555267e-001 +7.80236209512555692336e-003 +9.82829065614743320467e-003
2.45856250000000000000e+008 +7.99833135021506790030e-003 +9.88077733246572713355e-003 +7.77798311870013581171e-001 -5.90280233014113475676e-001 +7.77798311870013581171e-001 -5.90280233014113475676e-001 +7.99833135021506790030e-003 +9.88077733246572713355e-003
2.49600000000000000000e+008 +8.19521231900859591091e-003 +9.92938353651149838153e-003 +7.71768217749180696075e-001 -5.97817106629302763565e-001 +7.71768217749180696075e-001 -5.97817106629302763565e-001 +8.19521231900859591091e-003 +9.92938353651149838153e-003
2.53343750000000000000e+008 +8.39292884802079336426e-003 +9.97409329716175165059e-003 +7.65666093341403342087e-001 -6.05293163379845844396e-001 +7.65666093341403342087e-001 -6.05293163379845844396e-001 +8.39292884802079336426e-003 +9.97409329716175165059e-003
2.57087500000000000000e+008 +8.59140448417065362430e-003 +1.00148921432389997194e-002 +7.59492524782818034801e-001 -6.12707709122942145719e-001 +7.59492524782818034801e-001 -6.12707709122942145719e-001 +8.59140448417065362430e-003 +1.00148921432389997194e-002
2.60831250000000000000e+008 +8.79056250544972550554e-003 +1.00517671089034275889e-002 +7.53248105849332882933e-001 -6.20060055519056296802e-001 +7.53248105849332882933e-001 -6.20060055519056296802e-001 +8.79056250544972550554e-003 +1.00517671089034275889e-002
2.64575000000000000000e+008 +8.99032595161441440423e-003 +1.00847067384301491977e-002 +7.46933437850361703347e-001 -6.27349520109641067833e-001 +7.46933437850361703347e-001 -6.27349520109641067833e-001 +8.99032595161441440423e-003 +1.00847067384301491977e-002
2.68318750000000000000e+008 +9.19061765489525943351e-003 +1.01137010903717735472e-002 +7.40549129524820437531e-001 -6.34575426393554686832e-001 +7.40549129524820437531e-001 -6.34575426393554686832e-001 +9.19061765489525943351e-003 +1.01137010903717735472e-002
2.72062500000000000000e+008 +9.39136027071676808553e-003 +1.01387417411076766888e-002 +7.34095796939167266615e-001 -6.41737103902209948814e-001 +7.34095796939167266615e-001 -6.41737103902209948814e-001 +9.39136027071676808553e-003 +1.01387417411076766888e-002
2.75806250000000000000e+008 +9.59247630841827611525e-003 +1.01598217877785831215e-002 +7.27574063387296243732e-001 -6.48833888273489978182e-001 +7.27574063387296243732e-001 -6.48833888273489978182e-001 +9.59247630841827611525e-003 +1.01598217877785831215e-002
2.79550000000000000000e+008 +9.79388816197039949185e-003 +1.01769358506100613543e-002 +7.20984559292098592387e-001 -6.55865121324459732222e-001 +7.20984559292098592387e-001 -6.55865121324459732222e-001 +9.79388816197039949185e-003 +1.01769358506100613543e-002
2.83293750000000000000e+008 +9.99551814067595710556e-003 +1.01900800746228866606e-002 +7.14327922108540680490e-001 -6.62830151122899779992e-001 +7.14327922108540680490e-001 -6.62830151122899779992e-001 +9.99551814067595710556e-003 +1.01900800746228866606e-002
2.87037500000000000000e+008 +1.01972884998487306474e-002 +1.01992521307333865871e-002 +7.07604796228103127831e-001 -6.69728332057691666535e-001 +7.07604796228103127831e-001 -6.69728332057691666535e-001 +1.01972884998487306474e-002 +1.01992521307333865871e-002
2.90781250000000000000e+008 +1.03991214714602986380e-002 +1.02044512162441144282e-002 +7.00815832884454703589e-001 -6.76559024908073847193e-001 +7.00815832884454703589e-001 -6.76559024908073847193e-001 +1.03991214714602986380e-002 +1.02044512162441144282e-002
