# HZ S RI R 50
1.00000000000000000000e+007 +4.04826652544188229574e-005 +2.30944868691327167588e-004 +9.98174841452916794537e-001 -1.07518433511171150607e-002 +9.98174841452916794537e-001 -1.07518433511171150607e-002 +4.04826652544188229574e-005 +2.30944868691327167588e-004
1.37437500000000000000e+007 +4.94295744661686964664e-005 +3.17183461479513147379e-004 +9.97809620244493156171e-001 -1.47721636434278470740e-002 +9.97809620244493156171e-001 -1.47721636434278470740e-002 +4.94295744661686964664e-005 +3.17183461479513147379e-004
1.74875000000000000000e+007 +5.82450761022082030664e-005 +4.03323799179807537113e-004 +9.97466545437239560101e-001 -1.87904346636585499464e-002 +9.97466545437239560101e-001 -1.87904346636585499464e-002 +5.82450761022082030664e-005 +4.03323799179807537113e-004
2.12312500000000000000e+007 +6.71837965638498441469e-005 +4.89368567599755941062e-004 +9.97133751337492268974e-001 -2.28067834779200652451e-002 +9.97133751337492268974e-001 -2.28067834779200652451e-002 +6.71837965638498441469e-005 +4.89368567599755941062e-004
2.49750000000000000000e+007 +7.63906556442546595112e-005 +5.75318121238109730746e-004 +9.96804470819898202905e-001 -2.68212827909530895920e-002 +9.96804470819898202905e-001 -2.68212827909530895920e-002 +7.63906556442546595112e-005 +5.75318121238109730746e-004
2.87187500000000000000e+007 +8.59572904415974257258e-005 +6.61171415869431450610e-004 +9.96474412711918167140e-001 -3.08339726312311032674e-002 +9.96474412711918167140e-001 -3.08339726312311032674e-002 +8.59572904415974257258e-005 +6.61171415869431450610e-004
3.24625000000000000000e+007 +9.59458776392099537897e-005 +7.46926490501018027629e-004 +9.96140654399582547995e-001 -3.48448715570668227093e-002 +9.96140654399582547995e-001 -3.48448715570668227093e-002 +9.59458776392099537897e-005 +7.46926490501018027629e-004
3.62062500000000000000e+007 +1.06400788136155199795e-004 +8.32580745484693914883e-004 +9.95801099984507387397e-001 -3.88539831218598363805e-002 +9.95801099984507387397e-001 -3.88539831218598363805e-002 +1.06400788136155199795e-004 +8.32580745484693914883e-004
3.99500000000000000000e+007 +1.17354903764123531156e-004 +9.18131115960242366776e-004 +9.95454186565886134375e-001 -4.28612999047129836216e-002 +9.95454186565886134375e-001 -4.28612999047129836216e-002 +1.17354903764123531156e-004 +9.18131115960242366776e-004
4.36937500000000000000e+007 +1.28833310710003994979e-004 +1.00357418648618773593e-003 +9.95098712473305502257e-001 -4.68668061728275756050e-002 +9.95098712473305502257e-001 -4.68668061728275756050e-002 +1.28833310710003994979e-004 +1.00357418648618773593e-003
4.74375000000000000000e+007 +1.40855589582911794582e-004 +1.08890627030409155480e-003 +9.94733730744872701734e-001 -5.08704797209901943278e-002 +9.94733730744872701734e-001 -5.08704797209901943278e-002 +1.40855589582911794582e-004 +1.08890627030409155480e-003
5.11812500000000000000e+007 +1.53437303441386575439e-004 +1.17412346617504865717e-003 +9.94358479898297620281e-001 -5.48722931891152121420e-002 +9.94358479898297620281e-001 -5.48722931891152121420e-002 +1.53437303441386575439e-004 +1.17412346617504865717e-003
5.49250000000000000000e+007 +1.66591002444333639940e-004 +1.25922170037129571921e-003 +9.93972337180634823994e-001 -5.88722150342450914473e-002 +9.93972337180634823994e-001 -5.88722150342450914473e-002 +1.66591002444333639940e-004 +1.25922170037129571921e-003
5.86687500000000000000e+007 +1.80326924175547011154e-004 +1.34419675848888170444e-003 +9.93574785972211826923e-001 -6.28702102655690625577e-002 +9.93574785972211826923e-001 -6.28702102655690625577e-002 +1.80326924175547011154e-004 +1.34419675848888170444e-003
6.24125000000000000000e+007 +1.94653495228855653127e-004 +1.42904431007078694567e-003 +9.93165392435287563977e-001 -6.68662410120219319332e-002 +9.93165392435287563977e-001 -6.68662410120219319332e-002 +1.94653495228855653127e-004 +1.42904431007078694567e-003
6.61562500000000000000e+007 +2.09577698903932465539e-004 +1.51375992802212327830e-003 +9.92743788391848736019e-001 -7.08602669685809566369e-002 +9.92743788391848736019e-001 -7.08602669685809566369e-002 +2.09577698903932465539e-004 +1.51375992802212327830e-003
6.99000000000000000000e+007 +2.25105350250068742034e-004 +1.59833910416965342509e-003 +9.92309658512756320725e-001 -7.48522457527381890330e-002 +9.92309658512756320725e-001 -7.48522457527381890330e-002 +2.25105350250068742034e-004 +1.59833910416965342509e-003
7.36437500000000000000e+007 +2.41241305479224059372e-004 +1.68277726191223917646e-003 +9.91862730561458239009e-001 -7.88421331931815766447e-002 +9.91862730561458239009e-001 -7.88421331931815766447e-002 +2.41241305479224059372e-004 +1.68277726191223917646e-003
7.73875000000000000000e+007 +2.57989623924708365819e-004 +1.76706976663908578266e-003 +9.91402767846763621762e-001 -8.28298835664516008848e-002 +9.91402767846763621762e-001 -8.28298835664516008848e-002 +2.57989623924708365819e-004 +1.76706976663908578266e-003
8.11312500000000000000e+007 +2.75353695058039435115e-004 +1.85121193440992504523e-003 +9.90929563302564764271e-001 -8.68154497930767182767e-002 +9.90929563302564764271e-001 -8.68154497930767182767e-002 +2.75353695058039435115e-004 +1.85121193440992504523e-003
8.48750000000000000000e+007 +2.93336339356122899162e-004 +1.93519903926363950886e-003 +9.90442934785424333732e-001 -9.07987836017265931288e-002 +9.90442934785424333732e-001 -9.07987836017265931288e-002 +2.93336339356122899162e-004 +1.93519903926363950886e-003
8.86187500000000000000e+007 +3.11939889311197609059e-004 +2.01902631943162887140e-003 +9.89942721297203398478e-001 -9.47798356678209580339e-002 +9.89942721297203398478e-001 -9.47798356678209580339e-002 +3.11939889311197609059e-004 +2.01902631943162887140e-003
9.23625000000000000000e+007 +3.31166255161992697555e-004 +2.10268898266709192146e-003 +9.89428779919645950969e-001 -9.87585557315155404545e-002 +9.89428779919645950969e-001 -9.87585557315155404545e-002 +3.31166255161992697555e-004 +2.10268898266709192146e-003
9.61062500000000000000e+007 +3.51016978727588017072e-004 +2.18618221085369480311e-003 +9.88900983303509617528e-001 -1.02734892698874605288e-001 +9.88900983303509617528e-001 -1.02734892698874605288e-001 +3.51016978727588017072e-004 +2.18618221085369480311e-003
9.98500000000000000000e+007 +3.71493277875622552112e-004 +2.26950116402161632470e-003 +9.88359217594383054895e-001 -1.06708794729214143104e-001 +9.88359217594383054895e-001 -1.06708794729214143104e-001 +3.71493277875622552112e-004 +2.26950116402161632470e-003
1.03593750000000000000e+008 +3.92596083543869135701e-004 +2.35264098387207064647e-003 +9.87803380705827627217e-001 -1.10680209310976343517e-001 +9.87803380705827627217e-001 -1.10680209310976343517e-001 +3.92596083543869135701e-004 +2.35264098387207064647e-003
1.07337500000000000000e+008 +4.14326070786537944014e-004 +2.43559679689133367839e-003 +9.87233380871319399219e-001 -1.14649083328021220152e-001 +9.87233380871319399219e-001 -1.14649083328021220152e-001 +4.14326070786537944014e-004 +2.43559679689133367839e-003
1.11081250000000000000e+008 +4.36683684985234596507e-004 +2.51836371711926330225e-003 +9.86649135421891920750e-001 -1.18615363117856434383e-001 +9.86649135421891920750e-001 -1.18615363117856434383e-001 +4.36683684985234596507e-004 +2.51836371711926330225e-003
1.14825000000000000000e+008 +4.59669164116407427852e-004 +2.60093684862550090717e-003 +9.86050569747932925679e-001 -1.22578994523041148734e-001 +9.86050569747932925679e-001 -1.22578994523041148734e-001 +4.59669164116407427852e-004 +2.60093684862550090717e-003
1.18568750000000000000e+008 +4.83282557779117244879e-004 +2.68331128773610996796e-003 +9.85437616412326855553e-001 -1.26539922936774601459e-001 +9.85437616412326855553e-001 -1.26539922936774601459e-001 +4.83282557779117244879e-004 +2.68331128773610996796e-003
1.22312500000000000000e+008 +5.07523743543595142261e-004 +2.76548212504735364467e-003 +9.84810214388834093135e-001 -1.30498093343505150443e-001 +9.84810214388834093135e-001 -1.30498093343505150443e-001 +5.07523743543595142261e-004 +2.76548212504735364467e-003
1.26056250000000000000e+008 +5.32392441069789762627e-004 +2.84744444725495201437e-003 +9.84168308404751335239e-001 -1.34453450355251108439e-001 +9.84168308404751335239e-001 -1.34453450355251108439e-001 +5.32392441069789762627e-004 +2.84744444725495201437e-003
1.29800000000000000000e+008 +5.57888224359294471189e-004 +2.92919333882502930591e-003 +9.83511848370921759610e-001 -1.38405938244212739496e-001 +9.83511848370921759610e-001 -1.38405938244212739496e-001 +5.57888224359294471189e-004 +2.92919333882502930591e-003
1.33543750000000000000e+008 +5.84010532435761536840e-004 +3.01072388352596320010e-003 +9.82840788885319116552e-001 -1.42355500972160764483e-001 +9.82840788885319116552e-001 -1.42355500972160764483e-001 +5.84010532435761536840e-004 +3.01072388352596320010e-003
1.37287500000000000000e+008 +6.10758678695874114573e-004 +3.09203116584006896736e-003 +9.82155088798921549476e-001 -1.46302082217011186760e-001 +9.82155088798921549476e-001 -1.46302082217011186760e-001 +6.10758678695874114573e-004 +3.09203116584006896736e-003
1.41031250000000000000e+008 +6.38131859129864370192e-004 +3.17311027226909294144e-003 +9.81454710834586685486e-001 -1.50245625396935700291e-001 +9.81454710834586685486e-001 -1.50245625396935700291e-001 +6.38131859129864370192e-004 +3.17311027226909294144e-003
1.44775000000000000000e+008 +6.66129159576543065230e-004 +3.25395629254640562575e-003 +9.80739621251225601739e-001 -1.54186073692303693417e-001 +9.80739621251225601739e-001 -1.54186073692303693417e-001 +6.66129159576543065230e-004 +3.25395629254640562575e-003
1.48518750000000000000e+008 +6.94749562150226039267e-004 +3.33456432076704306633e-003 +9.80009789546867682297e-001 -1.58123370065710616705e-001 +9.80009789546867682297e-001 -1.58123370065710616705e-001 +6.94749562150226039267e-004 +3.33456432076704306633e-003
1.52262500000000000000e+008 +7.23991950954354542003e-004 +3.41492945644440368258e-003 +9.79265188195248548197e-001 -1.62057457280311123515e-001 +9.79265188195248548197e-001 -1.62057457280311123515e-001 +7.23991950954354542003e-004 +3.41492945644440368258e-003
1.56006250000000000000e+008 +7.53855117178543992877e-004 +3.49504680550224077970e-003 +9.78505792411408448217e-001 -1.65988277916646692622e-001 +9.78505792411408448217e-001 -1.65988277916646692622e-001 +7.53855117178543992877e-004 +3.49504680550224077970e-003
1.59750000000000000000e+008 +7.84337763660508712274e-004 +3.57491148120828725401e-003 +9.77731579942489492652e-001 -1.69915774388130796924e-001 +9.77731579942489492652e-001 -1.69915774388130796924e-001 +7.84337763660508712274e-004 +3.57491148120828725401e-003
1.63493750000000000000e+008 +8.15438508982215459406e-004 +3.65451860505627791273e-003 +9.76942530880496651235e-001 -1.73839888955334809229e-001 +9.76942530880496651235e-001 -1.73839888955334809229e-001 +8.15438508982215459406e-004 +3.65451860505627791273e-003
1.67237500000000000000e+008 +8.47155891159019993654e-004 +3.73386330760087752079e-003 +9.76138627494268273921e-001 -1.77760563739198490518e-001 +9.76138627494268273921e-001 -1.77760563739198490518e-001 +8.47155891159019993654e-004 +3.73386330760087752079e-003
1.70981250000000000000e+008 +8.79488370972326960473e-004 +3.81294072925088180920e-003 +9.75319854078297576727e-001 -1.81677740733275083773e-001 +9.75319854078297576727e-001 -1.81677740733275083773e-001 +8.79488370972326960473e-004 +3.81294072925088180920e-003
1.74725000000000000000e+008 +9.12434334988918493634e-004 +3.89174602102442890664e-003 +9.74486196816387373332e-001 -1.85591361815105354571e-001 +9.74486196816387373332e-001 -1.85591361815105354571e-001 +9.12434334988918493634e-004 +3.89174602102442890664e-003
1.78468750000000000000e+008 +9.45992098304111695903e-004 +3.97027434526951977095e-003 +9.73637643658391227497e-001 -1.89501368756807009319e-001 +9.73637643658391227497e-001 -1.89501368756807009319e-001 +9.45992098304111695903e-004 +3.97027434526951977095e-003
1.82212500000000000000e+008 +9.80159907041004566444e-004 +4.04852087635354084688e-003 +9.72774184208539338670e-001 -1.93407703234951516835e-001 +9.72774184208539338670e-001 -1.93407703234951516835e-001 +9.80159907041004566444e-004 +4.04852087635354084688e-003
1.85956250000000000000e+008 +1.01493594063363458055e-003 +4.12648080132435417233e-003 +9.71895809624041984165e-001 -1.97310306839797666711e-001 +9.71895809624041984165e-001 -1.97310306839797666711e-001 +1.01493594063363458055e-003 +4.12648080132435417233e-003
1.89700000000000000000e+008 +1.05031831391821082501e-003 +4.20414932054522915567e-003 +9.71002512522839089648e-001 -2.01209121083937431118e-001 +9.71002512522839089648e-001 -2.01209121083937431118e-001 +1.05031831391821082501e-003 +4.20414932054522915567e-003
1.93443750000000000000e+008 +1.08630507905361031219e-003 +4.28152164830610231644e-003 +9.70094286899500168886e-001 -2.05104087410408919556e-001 +9.70094286899500168886e-001 -2.05104087410408919556e-001 +1.08630507905361031219e-003 +4.28152164830610231644e-003
1.97187500000000000000e+008 +1.12289422728959961684e-003 +4.35859301341313520178e-003 +9.69171128048413987877e-001 -2.08995147200321557124e-001 +9.69171128048413987877e-001 -2.08995147200321557124e-001 +1.12289422728959961684e-003 +4.35859301341313520178e-003
2.00931250000000000000e+008 +1.16008369059892690704e-003 +4.43535865975814777573e-003 +9.68233032493507228544e-001 -2.12882241780036424172e-001 +9.68233032493507228544e-001 -2.12882241780036424172e-001 +1.16008369059892690704e-003 +4.43535865975814777573e-003
2.04675000000000000000e+008 +1.19787134318746638431e-003 +4.51181384686936710199e-003 +9.67279997923823686712e-001 -2.16765312427938811046e-001 +9.67279997923823686712e-001 -2.16765312427938811046e-001 +1.19787134318746638431e-003 +4.51181384686936710199e-003
2.08418750000000000000e+008 +1.23625500289520654992e-003 +4.58795385044585835033e-003 +9.66312023134375253086e-001 -2.20644300380835794995e-001 +9.66312023134375253086e-001 -2.20644300380835794995e-001 +1.23625500289520654992e-003 +4.58795385044585835033e-003
2.12162500000000000000e+008 +1.27523243249864719727e-003 +4.66377396287501102407e-003 +9.65329107971746092076e-001 -2.24519146840011341038e-001 +9.65329107971746092076e-001 -2.24519146840011341038e-001 +1.27523243249864719727e-003 +4.66377396287501102407e-003
2.15906250000000000000e+008 +1.31480134092503645610e-003 +4.73926949373659582576e-003 +9.64331253283988165670e-001 -2.28389792976964045579e-001 +9.64331253283988165670e-001 -2.28389792976964045579e-001 +1.31480134092503645610e-003 +4.73926949373659582576e-003
2.19650000000000000000e+008 +1.35495938438660499213e-003 +4.81443577029242852222e-003 +9.63318460874399984384e-001 -2.32256179938853640765e-001 +9.63318460874399984384e-001 -2.32256179938853640765e-001 +1.35495938438660499213e-003 +4.81443577029242852222e-003
2.23393750000000000000e+008 +1.39570416744275670705e-003 +4.88926813796342150248e-003 +9.62290733458824432134e-001 -2.36118248853678575072e-001 +9.62290733458824432134e-001 -2.36118248853678575072e-001 +1.39570416744275670705e-003 +4.88926813796342150248e-003
2.27137500000000000000e+008 +1.43703324399721359649e-003 +4.96376196079529718314e-003 +9.61248074626141146837e-001 -2.39975940835203765955e-001 +9.61248074626141146837e-001 -2.39975940835203765955e-001 +1.43703324399721359649e-003 +4.96376196079529718314e-003
2.30881250000000000000e+008 +1.47894411823600567014e-003 +5.03791262191276636995e-003 +9.60190488801665353868e-001 -2.43829196987659202467e-001 +9.60190488801665353868e-001 -2.43829196987659202467e-001 +1.47894411823600567014e-003 +5.03791262191276636995e-003
2.34625000000000000000e+008 +1.52143424551189434570e-003 +5.11171552396325317574e-003 +9.59117981213193249168e-001 -2.47677958410224247077e-001 +9.59117981213193249168e-001 -2.47677958410224247077e-001 +1.52143424551189434570e-003 +5.11171552396325317574e-003
2.38368750000000000000e+008 +1.56450103318034610018e-003 +5.18516608955143197546e-003 +9.58030557859460452086e-001 -2.51522166201313790435e-001 +9.58030557859460452086e-001 -2.51522166201313790435e-001 +1.56450103318034610018e-003 +5.18516608955143197546e-003
2.42112500000000000000e+008 +1.60814184139112690761e-003 +5.25825976166396404088e-003 +9.56928225480806582404e-001 -2.55361761462680469936e-001 +9.56928225480806582404e-001 -2.55361761462680469936e-001 +1.60814184139112690761e-003 +5.25825976166396404088e-003
2.45856250000000000000e+008 +1.65235398383980613274e-003 +5.33099200408604107643e-003 +9.55810991531858777925e-001 -2.59196685303344942497e-001 +9.55810991531858777925e-001 -2.59196685303344942497e-001 +1.65235398383980613274e-003 +5.33099200408604107643e-003
2.49600000000000000000e+008 +1.69713472848251746387e-003 +5.40335830180940692585e-003 +9.54678864156061623980e-001 -2.63026878843367173388e-001 +9.54678864156061623980e-001 -2.63026878843367173388e-001 +1.69713472848251746387e-003 +5.40335830180940692585e-003
2.53343750000000000000e+008 +1.74248129821737650878e-003 +5.47535416143292170271e-003 +9.53531852161905391085e-001 -2.66852283217467789456e-001 +9.53531852161905391085e-001 -2.66852283217467789456e-001 +1.74248129821737650878e-003 +5.47535416143292170271e-003
2.57087500000000000000e+008 +1.78839087153536595645e-003 +5.54697511155566574254e-003 +9.52369965000710916314e-001 -2.70672839578512125502e-001 +9.52369965000710916314e-001 -2.70672839578512125502e-001 +1.78839087153536595645e-003 +5.54697511155566574254e-003
2.60831250000000000000e+008 +1.83486058314332768637e-003 +5.61821670316301879228e-003 +9.51193212745847005429e-001 -2.74488489100861265957e-001 +9.51193212745847005429e-001 -2.74488489100861265957e-001 +1.83486058314332768637e-003 +5.61821670316301879228e-003
2.64575000000000000000e+008 +1.88188752456151103809e-003 +5.68907451000618367976e-003 +9.50001606073269000419e-001 -2.78299172983605125342e-001 +9.50001606073269000419e-001 -2.78299172983605125342e-001 +1.88188752456151103809e-003 +5.68907451000618367976e-003
2.68318750000000000000e+008 +1.92946874469774654927e-003 +5.75954412897520997422e-003 +9.48795156243271931018e-001 -2.82104832453678067150e-001 +9.48795156243271931018e-001 -2.82104832453678067150e-001 +1.92946874469774654927e-003 +5.75954412897520997422e-003
2.72062500000000000000e+008 +1.97760125040042375813e-003 +5.82962118046640147967e-003 +9.47573875083368100114e-001 -2.85905408768870383796e-001 +9.47573875083368100114e-001 -2.85905408768870383796e-001 +1.97760125040042375813e-003 +5.82962118046640147967e-003
2.75806250000000000000e+008 +2.02628200699165759643e-003 +5.89930130874316213663e-003 +9.46337774972201395407e-001 -2.89700843220737414008e-001 +9.46337774972201395407e-001 -2.89700843220737414008e-001 +2.02628200699165759643e-003 +5.89930130874316213663e-003
2.79550000000000000000e+008 +2.07550793878283562979e-003 +5.96858018229218766082e-003 +9.45086868824421610924e-001 -2.93491077137415734555e-001 +9.45086868824421610924e-001 -2.93491077137415734555e-001 +2.07550793878283562979e-003 +5.96858018229218766082e-003
2.83293750000000000000e+008 +2.12527592957346619928e-003 +6.03745349417355182259e-003 +9.43821170076448168196e-001 -2.97276051886350201059e-001 +9.43821170076448168196e-001 -2.97276051886350201059e-001 +2.12527592957346619928e-003 +6.03745349417355182259e-003
2.87037500000000000000e+008 +2.17558282313509926756e-003 +6.10591696236609422777e-003 +9.42540692673056956785e-001 -3.01055708876937666574e-001 +9.42540692673056956785e-001 -3.01055708876937666574e-001 +2.17558282313509926756e-003 +6.10591696236609422777e-003
2.90781250000000000000e+008 +2.22642542368141392942e-003 +6.17396633010787627971e-003 +9.41245451054732007456e-001 -3.04829989563091596771e-001 +9.41245451054732007456e-001 -3.04829989563091596771e-001 +2.22642542368141392942e-003 +6.17396633010787627971e-003
