! Touchstone 1.1 file saved by VNA QT V0.2.3.0
! Sun Jul 18 21:29:09 2021
!
! HEWLETT PACKARD,8753D,0,6.14 OPT: 002 006 010 
! IF bandwidth: 3000 Hz
! Output power level: 0.000000 dBm
! Smoothing OFF
! Averaging OFF
! Correction ON
! Params: S11 S21 S12 S22
! Start frequency: 0.000030000 GHz
! Stop frequency:  6.000000000 GHz
! Points: 1601
!
# HZ S DB R 50
30000.000000 -40.562823 -36.928489 0.045084 -0.323544 0.017478 0.024430 -47.168733 -48.176650 
3779981.250000 -49.330061 17.285317 -0.046861 -2.827992 -0.042546 -2.798438 -49.495304 18.661800 
7529962.500000 -47.361878 3.126066 -0.050955 -5.506532 -0.048026 -5.487007 -47.446275 5.190348 
11279943.750000 -46.559598 -5.344971 -0.063006 -8.182409 -0.058629 -8.160475 -46.867498 -5.490018 
15029925.000000 -45.506469 -13.091893 -0.066983 -10.859305 -0.064199 -10.898833 -46.341915 -13.686942 
18779906.250000 -44.695325 -20.979078 -0.076587 -13.499301 -0.071740 -13.466246 -45.699798 -20.458663 
22529887.500000 -43.860295 -28.128757 -0.083177 -16.187402 -0.076536 -16.097563 -45.138358 -28.954396 
26279868.750000 -42.982214 -34.453282 -0.076732 -18.805357 -0.079477 -18.763064 -44.506981 -36.354399 
30029850.000000 -42.320849 -41.158731 -0.088784 -21.436638 -0.079663 -21.411133 -43.931837 -42.956597 
33779831.250000 -41.522726 -46.365243 -0.094498 -24.126353 -0.089000 -24.055938 -43.295992 -50.366718 
37529812.500000 -40.821347 -52.341781 -0.088193 -26.720671 -0.086181 -26.648766 -42.784537 -57.289881 
41279793.750000 -40.176145 -58.190851 -0.092736 -29.409932 -0.095585 -29.333293 -42.287557 -64.344443 
45029775.000000 -39.537342 -63.022539 -0.101367 -32.014759 -0.094376 -31.998451 -41.828729 -70.774807 
48779756.250000 -38.950785 -67.941864 -0.105254 -34.658103 -0.098209 -34.619547 -41.373508 -76.465930 
52529737.500000 -38.352239 -72.380516 -0.111019 -37.282549 -0.102653 -37.276136 -40.868909 -82.764124 
56279718.750000 -37.805593 -76.783175 -0.108558 -39.925491 -0.100439 -39.959125 -40.431970 -88.475115 
60029700.000000 -37.315709 -80.885560 -0.115245 -42.598721 -0.117285 -42.531677 -40.003992 -93.750075 
63779681.250000 -36.852640 -85.622005 -0.122052 -45.218178 -0.116699 -45.268169 -39.575187 -98.841700 
67529662.500000 -36.424965 -89.268635 -0.122053 -47.895216 -0.122206 -47.875179 -39.193733 -103.853870 
71279643.750000 -36.031712 -92.970231 -0.119207 -50.511280 -0.124896 -50.540105 -38.739422 -109.144851 
75029625.000000 -35.556851 -96.873480 -0.131673 -53.156731 -0.125646 -53.159906 -38.367762 -113.511926 
78779606.250000 -35.213070 -100.449619 -0.130299 -55.748719 -0.130278 -55.843243 -38.019242 -118.485480 
82529587.500000 -34.790968 -103.487683 -0.136479 -58.392265 -0.133654 -58.443332 -37.631322 -122.809711 
86279568.750000 -34.490353 -107.512189 -0.136065 -61.047351 -0.131072 -61.116259 -37.237106 -127.055945 
90029550.000000 -34.124361 -110.637007 -0.140789 -63.624893 -0.138314 -63.728127 -36.952358 -131.016913 
93779531.250000 -33.845065 -114.197939 -0.143988 -66.343647 -0.136137 -66.344993 -36.594486 -135.482957 
97529512.500000 -33.524793 -117.491546 -0.138646 -68.944886 -0.142436 -69.000007 -36.282656 -139.333417 
101279493.750000 -33.245531 -120.779465 -0.151567 -71.606126 -0.143717 -71.642067 -35.991835 -143.253412 
105029475.000000 -33.019709 -123.861045 -0.150173 -74.268671 -0.150093 -74.279909 -35.645697 -147.594302 
108779456.250000 -32.723266 -127.401380 -0.154025 -76.913469 -0.148264 -76.914996 -35.365365 -150.789760 
112529437.500000 -32.522318 -130.824303 -0.161265 -79.493927 -0.152777 -79.573071 -35.074436 -154.352512 
116279418.750000 -32.300870 -133.882067 -0.159550 -82.135615 -0.153262 -82.173678 -34.788985 -157.896195 
120029400.000000 -32.100021 -136.914233 -0.156729 -84.749478 -0.155486 -84.836031 -34.542471 -161.495915 
123779381.250000 -31.837885 -140.176386 -0.167803 -87.482107 -0.168003 -87.512383 -34.312835 -164.760070 
127529362.500000 -31.671996 -143.395712 -0.165639 -90.089110 -0.166973 -90.142597 -34.073222 -168.015190 
131279343.750000 -31.496413 -146.616239 -0.169686 -92.714777 -0.169389 -92.828927 -33.866564 -170.911427 
135029325.000000 -31.341872 -150.065523 -0.169374 -95.335189 -0.174283 -95.409887 -33.609916 -174.256320 
138779306.250000 -31.188027 -153.096491 -0.170416 -97.957107 -0.177625 -98.003403 -33.399702 -177.584159 
142529287.500000 -31.033791 -156.071501 -0.172354 -100.619436 -0.178297 -100.681272 -33.189797 179.388795 
146279268.750000 -30.874184 -159.493158 -0.184512 -103.197566 -0.176701 -103.291813 -32.987633 176.370910 
150029250.000000 -30.766310 -162.640571 -0.176490 -105.850784 -0.182594 -105.891925 -32.818367 173.157227 
153779231.250000 -30.648265 -165.709981 -0.194063 -108.489230 -0.185144 -108.529843 -32.593222 170.224083 
157529212.500000 -30.523492 -168.848434 -0.186335 -111.130627 -0.190769 -111.134268 -32.428008 167.496970 
161279193.750000 -30.424151 -171.803697 -0.195074 -113.753685 -0.188121 -113.831138 -32.258534 164.577615 
165029175.000000 -30.295502 -175.171035 -0.197979 -116.405052 -0.190229 -116.427575 -32.096224 161.936482 
168779156.250000 -30.212846 -178.186417 -0.196254 -119.034106 -0.193832 -119.070234 -31.969729 159.009335 
172529137.500000 -30.143940 178.587398 -0.198579 -121.663289 -0.200141 -121.673849 -31.767979 156.118369 
176279118.750000 -30.067215 175.415386 -0.199291 -124.311335 -0.200755 -124.335263 -31.669790 153.391868 
180029100.000000 -29.957756 172.196732 -0.206851 -126.981635 -0.197732 -126.990104 -31.533534 150.848881 
183779081.250000 -29.914585 169.114214 -0.207598 -129.577196 -0.210830 -129.641337 -31.380544 148.084366 
187529062.500000 -29.859125 166.021072 -0.216116 -132.195070 -0.208449 -132.304049 -31.262644 145.486331 
191279043.750000 -29.772972 162.835267 -0.204207 -134.843040 -0.211906 -134.898645 -31.127460 142.709466 
195029025.000000 -29.724041 159.664945 -0.220813 -137.402734 -0.213236 -137.560445 -31.018066 140.039956 
198779006.250000 -29.690214 156.496648 -0.219822 -140.071356 -0.222070 -140.189835 -30.932495 137.239613 
202528987.500000 -29.610957 153.406132 -0.231330 -142.720674 -0.222476 -142.792131 -30.806183 134.837781 
206278968.750000 -29.557697 150.338017 -0.230243 -145.352768 -0.225411 -145.414028 -30.707154 132.265871 
210028950.000000 -29.505818 147.260262 -0.235321 -147.979382 -0.227125 -148.021633 -30.593266 129.526056 
213778931.250000 -29.455452 144.000667 -0.232915 -150.575913 -0.231673 -150.671202 -30.497168 126.925887 
217528912.500000 -29.424592 140.989135 -0.233919 -153.211628 -0.232009 -153.290385 -30.401225 124.229110 
221278893.750000 -29.360050 137.889896 -0.227271 -155.806791 -0.239095 -155.901738 -30.326475 121.724685 
225028875.000000 -29.331038 134.898187 -0.236874 -158.462191 -0.228068 -158.589259 -30.222167 119.211459 
228778856.250000 -29.285679 131.904879 -0.240396 -161.127340 -0.243718 -161.169255 -30.153807 116.457293 
232528837.500000 -29.239903 128.800738 -0.245346 -163.693894 -0.240719 -163.807675 -30.076463 113.830805 
236278818.750000 -29.167604 126.059117 -0.242923 -166.393763 -0.238758 -166.448482 -30.018982 111.129639 
240028800.000000 -29.136395 122.883456 -0.247216 -168.987139 -0.244388 -169.042064 -29.917348 108.532372 
243778781.250000 -29.077519 119.910048 -0.244689 -171.599783 -0.247447 -171.698924 -29.848904 105.849528 
247528762.500000 -29.012419 116.940249 -0.246110 -174.208863 -0.259044 -174.301596 -29.793748 103.321679 
251278743.750000 -28.966623 114.042240 -0.259583 -176.878131 -0.264965 -176.933965 -29.726389 100.472575 
255028725.000000 -28.903961 111.177480 -0.260129 -179.502728 -0.256352 -179.538964 -29.648841 97.793566 
258778706.250000 -28.839171 108.210261 -0.258826 177.870236 -0.259094 177.821496 -29.569570 94.978858 
262528687.500000 -28.772686 105.378276 -0.264734 175.289802 -0.261149 175.179645 -29.521491 92.244205 
266278668.750000 -28.695737 102.430422 -0.266466 172.623394 -0.269546 172.569836 -29.443380 89.494348 
270028650.000000 -28.617502 99.752561 -0.261692 170.005904 -0.269687 169.972795 -29.366049 86.689191 
273778631.250000 -28.536696 96.960946 -0.260999 167.406502 -0.270381 167.344606 -29.323625 83.792199 
277528612.500000 -28.449133 94.247499 -0.269725 164.780791 -0.275337 164.690269 -29.242360 80.842797 
281278593.750000 -28.378079 91.542735 -0.275189 162.191727 -0.277252 162.086831 -29.172381 78.024613 
285028575.000000 -28.281461 88.755129 -0.275496 159.527608 -0.283642 159.465099 -29.100964 75.012983 
288778556.250000 -28.184681 86.189283 -0.280126 156.945340 -0.281626 156.835086 -29.043209 72.058394 
292528537.500000 -28.089734 83.476340 -0.275589 154.356781 -0.285310 154.227698 -28.969238 69.141854 
296278518.750000 -27.978493 80.751059 -0.280187 151.724195 -0.293594 151.553228 -28.913707 66.076216 
300028500.000000 -27.885396 78.100319 -0.290265 149.061358 -0.284951 148.974889 -28.821757 62.916754 
303778481.250000 -27.762509 75.483069 -0.289775 146.407707 -0.290700 146.305921 -28.765482 59.784349 
307528462.500000 -27.648682 73.025774 -0.293971 143.795364 -0.288930 143.691935 -28.679458 56.686180 
311278443.750000 -27.511883 70.288047 -0.295913 141.174059 -0.290291 141.076189 -28.584237 53.337976 
315028425.000000 -27.403092 67.754103 -0.300193 138.546236 -0.297824 138.487581 -28.507535 50.287956 
318778406.250000 -27.278936 65.149162 -0.295387 135.976051 -0.299951 135.853684 -28.412657 46.760982 
322528387.500000 -27.169625 62.726459 -0.303517 133.304550 -0.307926 133.207569 -28.330279 43.596526 
326278368.750000 -27.014526 60.050854 -0.305432 130.686551 -0.302286 130.616219 -28.243073 40.209669 
330028350.000000 -26.876720 57.599847 -0.316601 128.050892 -0.306956 128.005736 -28.147765 36.907871 
333778331.250000 -26.736541 55.047257 -0.313728 125.445585 -0.310151 125.359888 -28.046755 33.608164 
337528312.500000 -26.621684 52.551083 -0.311520 122.777695 -0.314164 122.737187 -27.952145 30.107877 
341278293.750000 -26.482921 50.098802 -0.315271 120.167688 -0.311003 120.071720 -27.860320 26.813910 
345028275.000000 -26.338907 47.527436 -0.313613 117.581741 -0.322039 117.459363 -27.754788 23.252554 
348778256.250000 -26.194955 45.025229 -0.326359 114.908533 -0.322915 114.853978 -27.630797 19.947593 
352528237.500000 -26.074972 42.417493 -0.323943 112.325838 -0.322143 112.211159 -27.536596 16.421557 
356278218.750000 -25.914938 39.970342 -0.324594 109.681174 -0.328054 109.606431 -27.418854 13.018094 
360028200.000000 -25.794890 37.439787 -0.321930 107.024952 -0.334263 106.926379 -27.297449 9.473976 
363778181.250000 -25.654451 34.868765 -0.327909 104.455945 -0.329982 104.388206 -27.165105 6.100628 
367528162.500000 -25.515691 32.324098 -0.335664 101.841015 -0.335793 101.739080 -27.066071 2.742375 
371278143.750000 -25.368373 29.856541 -0.334424 99.162984 -0.339633 99.109596 -26.964521 -0.735864 
375028125.000000 -25.267000 27.351963 -0.335215 96.576806 -0.333850 96.511755 -26.826840 -4.150205 
378778106.250000 -25.123643 24.826356 -0.345689 93.967908 -0.345736 93.856679 -26.708851 -7.700487 
382528087.500000 -25.000545 22.218608 -0.346020 91.313860 -0.344845 91.253628 -26.562901 -10.954505 
386278068.750000 -24.873663 19.699690 -0.343789 88.679199 -0.346463 88.655130 -26.453732 -14.406787 
390028050.000000 -24.752984 17.192441 -0.354799 86.110079 -0.349216 85.999459 -26.319642 -17.879808 
393778031.250000 -24.615753 14.654039 -0.354635 83.454243 -0.353828 83.344851 -26.207683 -20.992296 
397528012.500000 -24.502455 11.971454 -0.357852 80.858194 -0.354646 80.773035 -26.075075 -24.345479 
401277993.750000 -24.408657 9.490974 -0.359901 78.238997 -0.359351 78.150387 -25.974199 -27.575271 
405027975.000000 -24.296184 6.956081 -0.359897 75.626934 -0.363553 75.530389 -25.830562 -30.917549 
408777956.250000 -24.182385 4.199287 -0.363839 73.033202 -0.363212 72.920059 -25.721686 -34.025082 
412527937.500000 -24.050505 1.704044 -0.366546 70.368751 -0.363081 70.272347 -25.619478 -37.246399 
416277918.750000 -23.974140 -0.766753 -0.368910 67.745297 -0.365830 67.666885 -25.483784 -40.377765 
420027900.000000 -23.890223 -3.460263 -0.369724 65.111189 -0.369471 65.055633 -25.380911 -43.273950 
423777881.250000 -23.789458 -6.196068 -0.374973 62.486176 -0.369685 62.450846 -25.281940 -46.421063 
427527862.500000 -23.699153 -8.811543 -0.370824 59.905651 -0.376351 59.808492 -25.157587 -49.521698 
431277843.750000 -23.611518 -11.474941 -0.378556 57.277503 -0.380012 57.184431 -25.047896 -52.468819 
435027825.000000 -23.528752 -14.103089 -0.382073 54.705312 -0.381742 54.594857 -24.958250 -55.443067 
438777806.250000 -23.448367 -16.782694 -0.383627 52.024039 -0.378962 52.020249 -24.857245 -58.336266 
442527787.500000 -23.365649 -19.429854 -0.383909 49.410995 -0.384266 49.346372 -24.763963 -61.259884 
446277768.750000 -23.308832 -22.161408 -0.388406 46.820764 -0.384569 46.719107 -24.665412 -64.112331 
450027750.000000 -23.247149 -24.870093 -0.387204 44.182948 -0.391645 44.068696 -24.576165 -66.814776 
453777731.250000 -23.177930 -27.617130 -0.388700 41.537872 -0.392696 41.502582 -24.493090 -69.534499 
457527712.500000 -23.117015 -30.385503 -0.388921 38.913975 -0.400554 38.877140 -24.422966 -72.255121 
461277693.750000 -23.062914 -33.168251 -0.394702 36.310697 -0.401744 36.204021 -24.348833 -75.025727 
465027675.000000 -23.005614 -35.859636 -0.396092 33.680931 -0.398548 33.616955 -24.268646 -77.627755 
468777656.250000 -22.967611 -38.680944 -0.397938 31.091839 -0.403283 31.040402 -24.199058 -80.230601 
472527637.500000 -22.920291 -41.497878 -0.406997 28.487909 -0.411620 28.408538 -24.129663 -82.685924 
476277618.750000 -22.878088 -44.397249 -0.403709 25.824502 -0.404745 25.726093 -24.071026 -85.244769 
480027600.000000 -22.841007 -47.289839 -0.402983 23.240918 -0.411593 23.173554 -24.004637 -87.698031 
483777581.250000 -22.819418 -50.154552 -0.408034 20.564625 -0.410179 20.589514 -23.939368 -90.110078 
487527562.500000 -22.793621 -53.083975 -0.414661 17.996487 -0.411213 17.912016 -23.870252 -92.509120 
491277543.750000 -22.768412 -55.966012 -0.411504 15.397906 -0.411577 15.299177 -23.812035 -94.948597 
495027525.000000 -22.756525 -58.919375 -0.412664 12.775820 -0.412296 12.670008 -23.756669 -97.305503 
498777506.250000 -22.728007 -61.877175 -0.414983 10.132926 -0.412420 10.081481 -23.697008 -99.629511 
502527487.500000 -22.728866 -64.767978 -0.416373 7.542761 -0.421281 7.465592 -23.640836 -101.931795 
506277468.750000 -22.708139 -67.753991 -0.419823 4.894704 -0.419843 4.806313 -23.595395 -104.299272 
510027450.000000 -22.706491 -70.777848 -0.416273 2.275214 -0.423764 2.233081 -23.536630 -106.523721 
513777431.250000 -22.697936 -73.734309 -0.423491 -0.378197 -0.424577 -0.403950 -23.509419 -108.896684 
517527412.500000 -22.699372 -76.821639 -0.423514 -2.993875 -0.426089 -3.020509 -23.464711 -111.082876 
521277393.750000 -22.707445 -79.821174 -0.428389 -5.604214 -0.429615 -5.634545 -23.422746 -113.293075 
525027375.000000 -22.696773 -82.891994 -0.428001 -8.194525 -0.428140 -8.265185 -23.379574 -115.621699 
528777356.250000 -22.702789 -86.016839 -0.434003 -10.847066 -0.432152 -10.852210 -23.347461 -117.749262 
532527337.500000 -22.718037 -89.037588 -0.435108 -13.451258 -0.442114 -13.526648 -23.314467 -119.862409 
536277318.750000 -22.533925 -91.954968 -0.435815 -16.061058 -0.431245 -16.178618 -23.044186 -121.815264 
540027300.000000 -22.548608 -94.930131 -0.437568 -18.650105 -0.444843 -18.817901 -23.000638 -123.847633 
543777281.250000 -22.558253 -98.054579 -0.442010 -21.243837 -0.440062 -21.428415 -22.930057 -126.028274 
547527262.500000 -22.554455 -101.426123 -0.440281 -23.888903 -0.447133 -24.049965 -22.913069 -128.145209 
551277243.750000 -22.592235 -104.439195 -0.442768 -26.515680 -0.444764 -26.612788 -22.868783 -130.315646 
555027225.000000 -22.560933 -107.598634 -0.445059 -29.110020 -0.451538 -29.308993 -22.841300 -132.499833 
558777206.250000 -22.600623 -110.817982 -0.435924 -31.747942 -0.448317 -31.874430 -22.799529 -134.731208 
562527187.500000 -22.594412 -114.002578 -0.453376 -34.374743 -0.458320 -34.499884 -22.748859 -136.873047 
566277168.750000 -22.617599 -117.051269 -0.457632 -36.974218 -0.449117 -37.137258 -22.756597 -139.049319 
570027150.000000 -22.620109 -120.133059 -0.458052 -39.594823 -0.450059 -39.744975 -22.711275 -141.333196 
573777131.250000 -22.637185 -123.503646 -0.456788 -42.216663 -0.461461 -42.371802 -22.704491 -143.592636 
577527112.500000 -22.644922 -126.638139 -0.460888 -44.867015 -0.463086 -45.011737 -22.683512 -145.848399 
581277093.750000 -22.663595 -129.670573 -0.461056 -47.513226 -0.470477 -47.583893 -22.657691 -147.809941 
585027075.000000 -22.663869 -132.857294 -0.463315 -50.069273 -0.470454 -50.272656 -22.638815 -150.021123 
588777056.250000 -22.665555 -135.953721 -0.462709 -52.697449 -0.468064 -52.862896 -22.594326 -152.490121 
592527037.500000 -22.685837 -138.904552 -0.473086 -55.287213 -0.479096 -55.526877 -22.548945 -154.640998 
596277018.750000 -22.705331 -142.498005 -0.471203 -57.918303 -0.472186 -58.047064 -22.539695 -157.054002 
600027000.000000 -22.715926 -145.253256 -0.475809 -60.554312 -0.481178 -60.737887 -22.547162 -159.115027 
603776981.250000 -22.701397 -148.317455 -0.477286 -63.149104 -0.481388 -63.329980 -22.506446 -161.515243 
607526962.500000 -22.696255 -151.134481 -0.479423 -65.834516 -0.487229 -65.926909 -22.515750 -163.807537 
611276943.750000 -22.713582 -154.216480 -0.484570 -68.416257 -0.485358 -68.545380 -22.499684 -166.257818 
615026925.000000 -22.715079 -157.340835 -0.486679 -71.036970 -0.482350 -71.199147 -22.495676 -168.369555 
618776906.250000 -22.699338 -160.180472 -0.494646 -73.674492 -0.495905 -73.795481 -22.445119 -170.870028 
622526887.500000 -22.696553 -163.149123 -0.490376 -76.251830 -0.493079 -76.411266 -22.446172 -173.296424 
626276868.750000 -22.673625 -166.017123 -0.493124 -78.896947 -0.492477 -79.029762 -22.428556 -175.526357 
630026850.000000 -22.672138 -169.028236 -0.497019 -81.503841 -0.499246 -81.602750 -22.415479 -177.828907 
633776831.250000 -22.637379 -171.847285 -0.498133 -84.104783 -0.502200 -84.258438 -22.397923 179.631284 
637526812.500000 -22.623853 -174.640955 -0.499438 -86.742402 -0.502686 -86.826542 -22.398207 177.083506 
641276793.750000 -22.618840 -177.339745 -0.502223 -89.336751 -0.500740 -89.464679 -22.346057 174.398817 
645026775.000000 -22.578118 179.914712 -0.507791 -91.969120 -0.507046 -92.056126 -22.362588 172.059370 
648776756.250000 -22.580111 177.242627 -0.499121 -94.564322 -0.508825 -94.692201 -22.307892 169.420274 
652526737.500000 -22.506411 174.467028 -0.515955 -97.181173 -0.511855 -97.334816 -22.297420 166.884372 
656276718.750000 -22.492441 171.759527 -0.514849 -99.772824 -0.519148 -99.913355 -22.287606 164.288624 
660026700.000000 -22.462990 169.242175 -0.516775 -102.460775 -0.514889 -102.534040 -22.285387 161.720611 
663776681.250000 -22.433731 166.521480 -0.515235 -105.018186 -0.519841 -105.176316 -22.269561 159.113082 
667526662.500000 -22.386908 163.977545 -0.517770 -107.653179 -0.519087 -107.784555 -22.228868 156.216787 
671276643.750000 -22.346452 161.269845 -0.521600 -110.233112 -0.529742 -110.387685 -22.221792 153.676063 
675026625.000000 -22.299037 158.724278 -0.531579 -112.916429 -0.523318 -112.949862 -22.218371 150.659000 
678776606.250000 -22.278624 156.062321 -0.531047 -115.499307 -0.531558 -115.595692 -22.184114 148.056285 
682526587.500000 -22.227652 153.773495 -0.533833 -118.133518 -0.530625 -118.290937 -22.166260 145.065194 
686276568.750000 -22.307157 151.323336 -0.534379 -120.701621 -0.535522 -120.870626 -22.137513 142.376695 
690026550.000000 -22.266251 148.737481 -0.540544 -123.324671 -0.533950 -123.505446 -22.127493 139.609348 
693776531.250000 -22.211115 146.286475 -0.541361 -125.943091 -0.541867 -126.065138 -22.112558 136.524780 
697526512.500000 -22.165200 143.787472 -0.542825 -128.550511 -0.544244 -128.729584 -22.073679 133.772526 
701276493.750000 -22.126265 141.303348 -0.543569 -131.158958 -0.549292 -131.291061 -22.085123 130.774745 
705026475.000000 -22.084367 138.893010 -0.543070 -133.754807 -0.547925 -133.904269 -22.055526 127.885427 
