! Touchstone 1.1 file saved by VNA QT V0.2.3.0
! Sun Jul 18 21:13:43 2021
!
! HEWLETT PACKARD,8753D,0,6.14 OPT: 002 006 010 
! IF bandwidth: 3000 Hz
! Output power level: 0.000000 dBm
! Smoothing OFF
! Averaging OFF
! Correction ON
! Params: S11 S21 S12 S22
! Start frequency: 0.000030000 GHz
! Stop frequency:  6.000000000 GHz
! Points: 1601
!
# HZ S DB R 50
30000.000000 -41.621626 -38.226026 0.025468 -0.209210 0.005320 0.122322 -50.071112 -45.140125 
3779981.250000 -52.599359 26.972867 -0.037465 -2.455761 -0.027313 -2.419534 -52.784463 28.019967 
7529962.500000 -50.493568 15.468062 -0.035799 -4.731856 -0.034386 -4.759268 -50.551466 17.446561 
11279943.750000 -49.695456 12.251483 -0.040072 -7.086669 -0.033335 -7.074072 -50.010024 11.763702 
15029925.000000 -48.709110 7.865777 -0.045508 -9.346736 -0.040095 -9.454814 -49.568270 7.875497 
18779906.250000 -48.065181 4.079459 -0.054201 -11.670179 -0.053973 -11.633938 -48.917704 6.155726 
22529887.500000 -47.494099 -1.256129 -0.055128 -13.952594 -0.052468 -13.921048 -48.581214 1.306204 
26279868.750000 -46.665588 -5.085731 -0.060221 -16.253514 -0.056621 -16.215431 -48.157280 -3.911110 
30029850.000000 -46.356711 -10.065064 -0.065229 -18.561968 -0.057137 -18.521776 -47.867071 -7.455301 
33779831.250000 -45.570476 -14.566634 -0.065431 -20.856888 -0.060083 -20.820846 -47.567632 -12.394601 
37529812.500000 -45.065300 -18.835872 -0.068332 -23.147218 -0.054912 -23.040553 -47.360052 -18.213186 
41279793.750000 -44.682752 -23.697102 -0.063792 -25.428282 -0.059813 -25.376826 -47.432891 -23.012031 
45029775.000000 -44.315973 -27.874510 -0.073624 -27.691276 -0.066490 -27.678529 -47.311401 -27.740308 
48779756.250000 -43.884820 -31.941745 -0.075575 -29.989690 -0.068398 -29.962382 -47.177081 -31.413660 
52529737.500000 -43.406523 -35.896847 -0.078179 -32.248322 -0.072124 -32.275252 -47.201688 -36.319632 
56279718.750000 -43.059763 -39.530687 -0.079258 -34.561233 -0.069105 -34.590037 -47.067712 -41.130836 
60029700.000000 -42.717443 -42.591568 -0.081224 -36.832834 -0.081172 -36.874487 -47.143231 -45.580391 
63779681.250000 -42.448798 -46.877584 -0.085069 -39.182936 -0.079182 -39.208211 -47.202153 -49.675412 
67529662.500000 -42.071282 -49.721998 -0.080630 -41.497383 -0.082356 -41.479179 -47.181074 -54.064114 
71279643.750000 -41.844078 -53.180777 -0.082900 -43.759139 -0.085686 -43.801205 -47.290761 -59.286257 
75029625.000000 -41.411189 -56.276950 -0.089932 -46.044443 -0.082361 -46.043533 -47.297853 -63.311811 
78779606.250000 -41.168763 -59.535564 -0.089586 -48.308509 -0.081298 -48.387860 -47.436442 -68.313244 
82529587.500000 -40.718371 -61.761150 -0.091724 -50.616847 -0.084866 -50.617418 -47.493190 -72.139290 
86279568.750000 -40.663372 -65.656351 -0.087004 -52.924171 -0.083869 -52.972973 -47.284118 -77.275147 
90029550.000000 -40.283229 -67.554921 -0.095470 -55.143394 -0.088260 -55.217373 -47.459736 -80.623552 
93779531.250000 -40.125874 -70.531519 -0.095124 -57.515656 -0.085325 -57.512827 -47.650375 -85.668284 
97529512.500000 -39.846452 -73.344463 -0.089516 -59.795828 -0.091999 -59.816958 -47.601237 -90.324461 
101279493.750000 -39.629896 -76.324430 -0.095093 -62.066336 -0.094120 -62.095745 -47.736301 -94.391557 
105029475.000000 -39.464022 -78.175237 -0.095184 -64.382900 -0.091750 -64.413350 -47.737118 -101.064450 
108779456.250000 -39.209056 -81.079372 -0.094391 -66.698356 -0.092671 -66.716709 -47.836760 -102.811878 
112529437.500000 -39.074681 -84.090237 -0.103001 -68.921457 -0.098806 -68.977599 -47.740610 -107.240582 
116279418.750000 -38.919491 -86.187851 -0.104932 -71.187282 -0.096245 -71.238538 -47.825707 -111.898835 
120029400.000000 -38.696151 -88.713754 -0.102604 -73.471072 -0.098498 -73.591597 -47.751142 -115.886541 
123779381.250000 -38.492164 -91.169092 -0.106451 -75.859005 -0.100798 -75.892108 -47.899553 -118.762053 
127529362.500000 -38.413650 -93.491292 -0.106867 -78.180083 -0.106482 -78.167955 -48.025727 -121.710989 
131279343.750000 -38.289960 -95.889209 -0.111955 -80.428192 -0.109672 -80.488189 -48.016097 -123.483169 
135029325.000000 -38.241030 -98.514437 -0.104212 -82.689290 -0.115759 -82.754540 -47.954694 -128.204006 
138779306.250000 -38.154454 -100.523577 -0.103172 -84.982588 -0.108010 -85.022437 -48.062130 -131.530218 
142529287.500000 -38.010693 -102.490392 -0.108739 -87.284721 -0.110900 -87.362054 -47.988982 -134.728596 
146279268.750000 -37.974617 -105.335775 -0.115026 -89.567667 -0.113430 -89.581919 -48.079115 -137.130703 
150029250.000000 -37.968276 -107.440705 -0.108168 -91.827403 -0.110538 -91.891689 -48.327983 -140.820408 
153779231.250000 -37.904247 -109.571238 -0.112657 -94.123730 -0.113876 -94.159835 -48.337345 -143.503950 
157529212.500000 -37.847326 -111.766564 -0.108771 -96.408626 -0.116476 -96.432171 -48.229037 -145.147093 
161279193.750000 -37.811437 -113.517024 -0.116696 -98.731611 -0.115144 -98.751551 -48.512340 -149.649243 
165029175.000000 -37.771374 -116.394894 -0.121033 -100.989327 -0.119299 -101.066572 -48.371803 -149.851321 
168779156.250000 -37.770377 -118.151310 -0.116284 -103.292675 -0.115721 -103.339142 -48.613647 -151.558825 
172529137.500000 -37.817891 -120.003729 -0.121803 -105.582960 -0.121574 -105.575176 -48.570833 -155.088703 
176279118.750000 -37.867723 -122.062023 -0.121941 -107.871946 -0.120951 -107.892196 -48.730914 -154.423198 
180029100.000000 -37.895496 -124.611888 -0.122626 -110.207343 -0.117184 -110.243240 -48.850312 -155.224067 
183779081.250000 -37.855648 -125.982807 -0.130383 -112.475136 -0.123561 -112.491076 -48.744316 -157.355117 
187529062.500000 -37.968662 -127.788503 -0.136104 -114.747353 -0.123924 -114.819736 -49.055166 -156.840075 
191279043.750000 -37.973463 -130.049344 -0.125698 -117.066464 -0.128082 -117.082474 -49.091157 -159.455794 
195029025.000000 -38.077838 -131.951405 -0.141435 -119.265201 -0.131531 -119.367037 -49.178201 -161.152465 
198779006.250000 -38.202527 -133.473061 -0.131400 -121.607967 -0.134281 -121.698941 -49.217783 -160.171706 
202528987.500000 -38.274493 -135.598690 -0.142143 -123.926687 -0.131532 -123.935261 -49.088476 -159.653358 
206278968.750000 -38.275626 -137.224514 -0.141417 -126.168230 -0.133115 -126.225011 -48.973907 -159.440361 
210028950.000000 -38.381001 -139.310658 -0.142008 -128.473277 -0.137072 -128.542738 -49.185958 -160.806293 
213778931.250000 -38.554591 -141.306955 -0.142360 -130.745501 -0.141754 -130.793685 -49.129744 -160.367469 
217528912.500000 -38.659388 -142.698358 -0.143901 -133.008431 -0.139302 -133.077370 -49.205359 -160.188661 
221278893.750000 -38.770401 -144.354809 -0.141768 -135.324241 -0.144054 -135.324327 -49.045666 -160.375335 
225028875.000000 -38.831968 -145.378559 -0.145846 -137.555746 -0.138770 -137.641696 -48.803858 -159.587574 
228778856.250000 -38.996052 -146.771659 -0.149592 -139.858701 -0.146468 -139.922574 -48.868910 -158.541548 
232528837.500000 -39.144775 -148.602711 -0.152931 -142.171216 -0.146400 -142.191145 -48.872812 -159.401325 
236278818.750000 -39.107764 -149.971955 -0.149275 -144.474316 -0.145075 -144.472243 -48.809891 -158.317498 
240028800.000000 -39.263661 -151.734094 -0.148395 -146.746024 -0.149733 -146.752998 -48.536396 -158.395145 
243778781.250000 -39.440808 -153.367356 -0.153853 -149.005110 -0.146638 -149.071011 -48.415471 -158.418495 
247528762.500000 -39.449825 -154.845692 -0.150202 -151.271979 -0.152287 -151.386132 -48.174170 -157.276726 
251278743.750000 -39.590698 -156.155272 -0.159257 -153.594236 -0.153434 -153.653026 -48.094337 -157.900996 
255028725.000000 -39.665024 -157.693358 -0.160747 -155.850871 -0.153916 -155.898364 -47.783756 -157.793359 
258778706.250000 -39.808622 -158.830861 -0.155003 -158.188013 -0.154001 -158.190658 -47.779041 -159.014845 
262528687.500000 -39.890038 -161.053191 -0.161884 -160.424785 -0.151842 -160.493638 -47.527987 -158.064618 
266278668.750000 -39.989227 -162.339948 -0.163752 -162.764174 -0.163432 -162.757367 -47.279905 -159.443215 
270028650.000000 -40.030915 -164.205251 -0.161374 -164.994228 -0.155189 -165.034643 -47.157374 -159.484776 
273778631.250000 -40.113214 -165.896625 -0.163229 -167.274075 -0.166526 -167.305705 -46.967223 -159.682154 
277528612.500000 -40.155123 -167.245539 -0.166801 -169.554221 -0.161403 -169.597008 -46.844727 -161.278166 
281278593.750000 -40.194040 -168.353650 -0.169766 -171.834595 -0.165639 -171.896110 -46.756855 -161.504867 
285028575.000000 -40.206757 -170.613113 -0.166505 -174.107798 -0.169869 -174.184373 -46.671232 -162.466451 
288778556.250000 -40.257145 -172.444595 -0.170971 -176.402530 -0.171169 -176.481066 -46.554653 -163.905748 
292528537.500000 -40.241326 -174.327700 -0.170065 -178.669687 -0.170717 -178.701694 -46.396920 -165.244094 
296278518.750000 -40.286470 -176.306887 -0.167219 179.074834 -0.175543 178.949032 -46.410372 -165.527832 
300028500.000000 -40.297661 -178.492862 -0.171876 176.804143 -0.171025 176.643697 -46.416293 -167.584706 
303778481.250000 -40.271378 179.114867 -0.175570 174.472804 -0.173506 174.370167 -46.432120 -168.679955 
307528462.500000 -40.230541 177.041624 -0.181025 172.197123 -0.169319 172.094309 -46.421396 -170.886218 
311278443.750000 -40.109292 174.588653 -0.177525 169.914795 -0.177850 169.845524 -46.657093 -171.832064 
315028425.000000 -40.066353 172.587464 -0.177405 167.636887 -0.181925 167.548079 -46.606781 -173.273771 
318778406.250000 -40.048319 169.683113 -0.175726 165.373046 -0.175839 165.284318 -47.035500 -175.333516 
322528387.500000 -39.873139 167.245738 -0.179082 163.068923 -0.175154 162.977942 -47.028924 -176.807234 
326278368.750000 -39.829277 164.490659 -0.182389 160.830964 -0.178702 160.744911 -47.428246 -178.184500 
330028350.000000 -39.716633 161.257318 -0.189511 158.519828 -0.178739 158.471039 -47.651073 -179.686857 
333778331.250000 -39.557407 158.597315 -0.185282 156.290333 -0.185978 156.163388 -48.020890 179.177909 
337528312.500000 -39.493019 156.063678 -0.183617 153.940515 -0.185624 153.886308 -48.569426 178.314400 
341278293.750000 -39.273906 153.022497 -0.182285 151.676266 -0.185855 151.562045 -49.088092 177.068161 
345028275.000000 -39.071731 150.052305 -0.187032 149.379104 -0.196171 149.281007 -49.693768 176.340295 
348778256.250000 -38.880817 146.732266 -0.193508 147.124690 -0.184944 147.050563 -50.470264 175.014063 
352528237.500000 -38.799910 143.785435 -0.191971 144.818917 -0.186879 144.731065 -51.378530 174.528948 
356278218.750000 -38.517378 140.456314 -0.195347 142.545676 -0.191233 142.451570 -52.225628 174.204990 
360028200.000000 -38.400694 137.544697 -0.191101 140.227155 -0.201614 140.120419 -53.902181 176.419865 
363778181.250000 -38.192108 134.077473 -0.193096 138.000030 -0.196448 137.915077 -55.626617 177.768129 
367528162.500000 -38.011226 131.125009 -0.193168 135.735785 -0.201155 135.549176 -57.145501 -177.826127 
371278143.750000 -37.690370 127.760373 -0.196168 133.381048 -0.199364 133.322234 -59.095040 -161.603975 
375028125.000000 -37.525424 124.775206 -0.195042 131.155645 -0.195425 131.043938 -61.994582 -148.698754 
378778106.250000 -37.245122 121.625359 -0.208109 128.856435 -0.199121 128.755924 -62.068152 -112.814527 
382528087.500000 -37.080043 118.652835 -0.209477 126.587602 -0.202169 126.487256 -60.400983 -84.498125 
386278068.750000 -36.863548 115.578113 -0.197101 124.269009 -0.201949 124.193385 -56.802186 -76.007891 
390028050.000000 -36.563536 112.770128 -0.207795 122.006522 -0.206055 121.906501 -54.326861 -68.502875 
393778031.250000 -36.304946 109.259292 -0.204454 119.682487 -0.210001 119.643565 -52.628187 -66.263669 
397528012.500000 -36.138315 106.310367 -0.208477 117.462164 -0.202815 117.331895 -50.753112 -64.640155 
401277993.750000 -35.831973 103.547424 -0.209726 115.128570 -0.206641 115.053781 -49.438092 -65.156420 
405027975.000000 -35.589332 100.743688 -0.212422 112.886847 -0.206787 112.808986 -47.904929 -64.932462 
408777956.250000 -35.389250 97.522017 -0.214799 110.633452 -0.208099 110.526909 -46.867898 -66.890792 
412527937.500000 -35.070704 94.437433 -0.205464 108.348325 -0.208512 108.236153 -45.769378 -68.741249 
416277918.750000 -34.837435 92.027003 -0.211302 106.042849 -0.206690 105.940969 -44.886813 -68.710635 
420027900.000000 -34.644115 89.595934 -0.213197 103.804157 -0.212636 103.675966 -44.188234 -70.703063 
423777881.250000 -34.459259 86.484000 -0.212462 101.412192 -0.211509 101.388990 -43.320718 -72.271651 
427527862.500000 -34.263841 83.848106 -0.212175 99.198981 -0.215548 99.117251 -42.497767 -74.031840 
431277843.750000 -33.967824 81.088508 -0.211090 96.894358 -0.213639 96.829607 -41.911236 -75.448091 
435027825.000000 -33.763035 78.542165 -0.214284 94.655886 -0.214010 94.544266 -41.324151 -78.730006 
438777806.250000 -33.528033 75.703320 -0.220349 92.319569 -0.214547 92.244478 -40.745408 -80.009610 
442527787.500000 -33.323424 73.310947 -0.220122 90.052009 -0.215233 90.001792 -40.211576 -82.924637 
446277768.750000 -33.179728 70.702193 -0.222405 87.796575 -0.218568 87.700647 -39.779889 -84.972455 
450027750.000000 -32.953222 68.392886 -0.215087 85.500118 -0.224719 85.394312 -39.332304 -86.671274 
453777731.250000 -32.768688 65.767487 -0.221224 83.211365 -0.223841 83.144258 -38.960668 -88.795201 
457527712.500000 -32.576675 63.160490 -0.216953 80.952067 -0.226617 80.851028 -38.550878 -91.274160 
461277693.750000 -32.397044 60.490670 -0.222124 78.686550 -0.228188 78.576006 -38.068822 -93.440705 
465027675.000000 -32.214509 58.118464 -0.237129 76.373428 -0.230608 76.287763 -37.802351 -95.519775 
468777656.250000 -32.084183 55.868867 -0.230621 74.096040 -0.229725 74.023037 -37.493821 -98.138788 
472527637.500000 -31.939537 53.366864 -0.230923 71.811490 -0.233376 71.734313 -37.206058 -99.920783 
476277618.750000 -31.780374 50.907581 -0.233299 69.502817 -0.227887 69.427988 -36.995118 -102.275943 
480027600.000000 -31.651660 48.323768 -0.229602 67.248383 -0.241343 67.172973 -36.763678 -104.337543 
483777581.250000 -31.511571 46.128434 -0.240274 64.933587 -0.230428 64.896546 -36.489438 -106.734530 
487527562.500000 -31.383063 43.658853 -0.238574 62.671372 -0.234675 62.559230 -36.363024 -108.555447 
491277543.750000 -31.258906 41.002534 -0.233431 60.392355 -0.238791 60.301933 -36.142030 -111.052356 
495027525.000000 -31.164908 38.643762 -0.233627 58.117613 -0.237457 58.008712 -36.007394 -112.846542 
498777506.250000 -31.025056 36.243803 -0.238557 55.833401 -0.237531 55.746732 -35.825585 -115.280438 
502527487.500000 -30.974877 33.949570 -0.241485 53.613363 -0.246639 53.489883 -35.701953 -117.156522 
506277468.750000 -30.881740 31.336364 -0.238187 51.290233 -0.237905 51.190321 -35.564710 -119.270227 
510027450.000000 -30.801166 28.906262 -0.243679 49.021475 -0.248289 48.913937 -35.494120 -121.522695 
513777431.250000 -30.748659 26.762152 -0.242112 46.752186 -0.249111 46.654310 -35.327791 -123.490058 
517527412.500000 -30.666381 24.296651 -0.239618 44.458555 -0.244075 44.351454 -35.268002 -125.386638 
521277393.750000 -30.666092 21.914349 -0.244415 42.165537 -0.247516 42.116123 -35.260969 -127.502565 
525027375.000000 -30.607929 19.455865 -0.241013 39.923881 -0.256468 39.807416 -35.142040 -129.543231 
528777356.250000 -30.571144 16.961900 -0.245425 37.613116 -0.251447 37.543791 -35.153557 -131.541336 
532527337.500000 -30.525737 14.582105 -0.247204 35.339840 -0.258186 35.249968 -35.116056 -133.740374 
536277318.750000 -30.497542 12.092968 -0.250869 33.050124 -0.248971 33.003350 -35.075584 -135.675068 
540027300.000000 -30.470768 9.770010 -0.255467 30.795140 -0.263639 30.676282 -35.051229 -137.927782 
543777281.250000 -30.500203 7.407892 -0.253921 28.497809 -0.262064 28.383508 -35.083725 -139.466681 
547527262.500000 -30.507077 4.904203 -0.254311 26.220424 -0.258364 26.125203 -35.071180 -141.420991 
551277243.750000 -30.510736 2.524259 -0.258505 23.934688 -0.249410 23.892329 -35.072684 -143.519282 
555027225.000000 -30.532247 0.022045 -0.264203 21.678901 -0.259692 21.577931 -35.109400 -145.550452 
558777206.250000 -30.591577 -2.508997 -0.254464 19.384704 -0.255299 19.325568 -35.147233 -147.100468 
562527187.500000 -30.617668 -4.788447 -0.260590 17.061663 -0.258577 17.031212 -35.213355 -149.175042 
566277168.750000 -30.646203 -7.226370 -0.260985 14.836009 -0.253406 14.785531 -35.248188 -151.102631 
570027150.000000 -30.697713 -9.689192 -0.260026 12.497932 -0.258841 12.499890 -35.301846 -152.625375 
573777131.250000 -30.750452 -12.105020 -0.262672 10.255198 -0.260223 10.222983 -35.365411 -154.375173 
577527112.500000 -30.808372 -14.589120 -0.267678 7.952609 -0.261334 7.939487 -35.432746 -156.154252 
581277093.750000 -30.910532 -17.014272 -0.270138 5.691209 -0.266384 5.685118 -35.561449 -157.985549 
585027075.000000 -30.970366 -19.551927 -0.263254 3.393978 -0.267778 3.316268 -35.650323 -159.662946 
588777056.250000 -31.039596 -22.224197 -0.267226 1.134261 -0.261772 1.129944 -35.706456 -161.273089 
592527037.500000 -31.131102 -24.548043 -0.265799 -1.153910 -0.273575 -1.203675 -35.853333 -162.629595 
596277018.750000 -31.214118 -27.216465 -0.268096 -3.433810 -0.264105 -3.480987 -35.922801 -164.662463 
600027000.000000 -31.329809 -29.614996 -0.270982 -5.726210 -0.268496 -5.798881 -36.025136 -165.863963 
603776981.250000 -31.407637 -32.180704 -0.268615 -7.973504 -0.269187 -8.088782 -36.118241 -167.572784 
607526962.500000 -31.497051 -34.744622 -0.270425 -10.306621 -0.270715 -10.356477 -36.230616 -169.017794 
611276943.750000 -31.592401 -37.380916 -0.275802 -12.545057 -0.269116 -12.618403 -36.292419 -170.323130 
615026925.000000 -31.682127 -40.009641 -0.274235 -14.872248 -0.268584 -14.907138 -36.435006 -171.714064 
618776906.250000 -31.803371 -42.888254 -0.277940 -17.125161 -0.273770 -17.171452 -36.529094 -172.788177 
622526887.500000 -31.885127 -45.578358 -0.275645 -19.416707 -0.276571 -19.459059 -36.602150 -174.114391 
626276868.750000 -31.979734 -48.082959 -0.278980 -21.672993 -0.276253 -21.747444 -36.758491 -175.167310 
630026850.000000 -32.066401 -50.908161 -0.274631 -23.966154 -0.275126 -24.020946 -36.814909 -176.542480 
633776831.250000 -32.151912 -53.874811 -0.278127 -26.199292 -0.274685 -26.335030 -36.951824 -177.614216 
637526812.500000 -32.266706 -56.583052 -0.273859 -28.520017 -0.278714 -28.551812 -36.998978 -178.545526 
641276793.750000 -32.314509 -59.595981 -0.282655 -30.776024 -0.276775 -30.872740 -37.027528 -179.140414 
645026775.000000 -32.402546 -62.490313 -0.283861 -33.056207 -0.276358 -33.112328 -37.110874 179.727697 
648776756.250000 -32.494827 -65.266355 -0.278211 -35.356762 -0.284421 -35.461227 -37.117621 178.780458 
652526737.500000 -32.502997 -68.465682 -0.281772 -37.638631 -0.280810 -37.729577 -37.135619 177.669344 
656276718.750000 -32.541857 -71.475726 -0.285377 -39.905516 -0.288081 -39.991175 -37.133841 177.229404 
660026700.000000 -32.592604 -74.385383 -0.286157 -42.210722 -0.282330 -42.270773 -37.109373 176.024627 
663776681.250000 -32.660839 -77.469156 -0.283519 -44.495413 -0.283767 -44.537556 -37.043560 175.073959 
667526662.500000 -32.669076 -80.616474 -0.286709 -46.722854 -0.283755 -46.894810 -37.025833 174.620454 
671276643.750000 -32.626975 -83.768254 -0.289935 -49.026324 -0.291707 -49.078420 -36.882907 173.315470 
675026625.000000 -32.672550 -87.084189 -0.295649 -51.365619 -0.287387 -51.346684 -36.827556 172.165405 
678776606.250000 -32.640003 -90.140499 -0.288902 -53.591062 -0.291585 -53.636411 -36.713910 171.415191 
682526587.500000 -32.600639 -93.153193 -0.287932 -55.867280 -0.294606 -56.003401 -36.542370 170.039639 
686276568.750000 -32.524061 -96.260325 -0.285112 -58.158948 -0.288592 -58.268038 -36.414748 169.031908 
690026550.000000 -32.494519 -99.584979 -0.296245 -60.457755 -0.287991 -60.548808 -36.224981 167.872995 
693776531.250000 -32.388066 -102.792066 -0.296215 -62.700272 -0.292541 -62.842933 -36.001459 165.865907 
697526512.500000 -32.313243 -106.007351 -0.297144 -64.965289 -0.297413 -65.132099 -35.831007 164.582222 
701276493.750000 -32.236021 -109.105759 -0.299081 -67.269321 -0.299223 -67.398372 -35.639789 163.095462 
