! Touchstone 1.1 file saved by VNA QT V0.2.3.0
! Sun Jul 18 21:03:59 2021
!
! HEWLETT PACKARD,8753D,0,6.14 OPT: 002 006 010 
! IF bandwidth: 3000 Hz
! Output power level: 0.000000 dBm
! Smoothing OFF
! Averaging OFF
! Correction ON
! Params: S11 S21 S12 S22
! Start frequency: 0.000030000 GHz
! Stop frequency:  6.000000000 GHz
! Points: 1601
!
# HZ S DB R 50
30000.000000 -42.818265 -35.535701 0.010608 0.094305 -0.004569 0.391880 -51.111381 -41.208094 
3779981.250000 -57.537697 32.625656 -0.025935 -2.117267 -0.011490 -2.085715 -57.823286 32.867305 
7529962.500000 -55.256077 14.318316 -0.022366 -4.102103 -0.017028 -4.103092 -55.215273 17.921970 
11279943.750000 -54.682583 11.081895 -0.025538 -6.146143 -0.021651 -6.122226 -55.292308 8.950323 
15029925.000000 -53.628462 6.283688 -0.029618 -8.133080 -0.020816 -8.192071 -54.885915 5.916543 
18779906.250000 -53.121054 2.652292 -0.033996 -10.101837 -0.037083 -10.087629 -53.992749 5.511836 
22529887.500000 -52.472181 -1.047994 -0.038464 -12.162100 -0.030254 -12.121718 -53.970908 -1.190789 
26279868.750000 -51.597352 -7.966731 -0.032568 -14.156283 -0.029222 -14.121771 -53.592901 -5.696292 
30029850.000000 -51.179327 -11.201735 -0.038710 -16.098832 -0.028354 -16.126601 -53.423031 -10.367591 
33779831.250000 -50.440829 -15.332048 -0.040995 -18.116062 -0.028572 -18.157570 -52.955640 -14.483852 
37529812.500000 -49.633364 -19.652292 -0.036452 -20.137622 -0.027855 -20.083218 -52.804015 -19.620717 
41279793.750000 -49.298451 -24.592021 -0.035998 -22.150929 -0.037079 -22.100755 -52.969467 -25.711171 
45029775.000000 -48.797593 -28.459465 -0.040491 -24.132828 -0.037215 -24.142392 -52.994691 -30.325792 
48779756.250000 -48.477557 -31.890484 -0.044266 -26.139842 -0.034844 -26.126956 -53.106734 -35.789731 
52529737.500000 -47.809643 -35.251632 -0.044881 -28.090890 -0.038030 -28.134471 -53.002676 -40.962277 
56279718.750000 -47.458091 -39.025835 -0.042070 -30.083548 -0.031906 -30.174579 -53.116580 -45.007653 
60029700.000000 -47.218300 -42.235929 -0.044915 -32.081209 -0.042189 -32.136314 -52.993108 -51.390658 
63779681.250000 -46.922276 -46.294600 -0.039456 -34.115364 -0.043283 -34.187686 -53.356293 -55.754070 
67529662.500000 -46.559039 -48.484021 -0.046599 -36.164245 -0.047120 -36.129742 -53.509628 -61.364753 
71279643.750000 -46.313162 -51.015176 -0.043292 -38.145778 -0.044983 -38.165716 -53.502340 -68.791673 
75029625.000000 -45.766007 -54.004617 -0.047831 -40.158099 -0.045946 -40.129214 -54.024029 -74.091854 
78779606.250000 -45.516776 -56.667454 -0.051526 -42.103310 -0.047288 -42.191852 -54.371443 -77.942423 
82529587.500000 -45.107869 -58.795811 -0.050900 -44.140597 -0.046174 -44.134849 -54.133980 -83.901286 
86279568.750000 -44.941581 -61.963991 -0.047119 -46.147478 -0.049418 -46.196287 -53.946912 -90.183727 
90029550.000000 -44.556343 -63.664114 -0.047930 -48.088455 -0.046801 -48.156524 -54.435752 -95.038338 
93779531.250000 -44.474920 -66.113201 -0.060766 -50.151594 -0.048404 -50.169215 -54.363781 -102.785121 
97529512.500000 -44.061723 -68.646417 -0.050121 -52.140286 -0.050540 -52.158180 -54.423194 -107.207370 
101279493.750000 -43.807700 -70.463409 -0.056155 -54.137856 -0.048505 -54.146113 -54.655874 -115.113686 
105029475.000000 -43.723929 -72.240227 -0.052164 -56.182109 -0.049716 -56.161172 -54.055121 -122.945735 
108779456.250000 -43.475656 -74.826218 -0.050248 -58.174511 -0.050691 -58.129218 -54.345674 -126.215154 
112529437.500000 -43.291674 -77.378556 -0.051193 -60.133385 -0.049480 -60.156093 -54.394687 -129.614305 
116279418.750000 -43.166644 -79.114399 -0.056505 -62.113342 -0.048392 -62.147611 -54.212831 -136.801223 
120029400.000000 -42.960619 -80.901150 -0.051880 -64.115417 -0.050468 -64.168794 -54.161407 -142.167532 
123779381.250000 -42.695466 -82.588432 -0.058654 -66.127596 -0.050606 -66.216442 -54.401380 -147.030840 
127529362.500000 -42.622433 -84.639979 -0.054960 -68.158726 -0.058133 -68.211012 -54.651499 -151.366865 
131279343.750000 -42.588771 -86.353639 -0.053542 -70.120608 -0.058580 -70.228353 -54.793005 -152.737195 
135029325.000000 -42.566987 -89.318923 -0.053024 -72.122492 -0.057852 -72.215764 -54.765973 -158.939404 
138779306.250000 -42.480177 -90.750644 -0.052722 -74.083118 -0.055125 -74.164581 -54.632193 -165.327084 
142529287.500000 -42.329849 -91.868804 -0.055227 -76.137885 -0.053573 -76.203992 -54.736171 -166.897304 
146279268.750000 -42.318944 -94.275010 -0.062332 -78.129845 -0.058629 -78.176348 -54.904543 -170.493336 
150029250.000000 -42.395467 -96.123940 -0.052167 -80.112568 -0.051617 -80.173900 -55.058007 -179.530199 
153779231.250000 -42.321830 -97.581907 -0.059080 -82.112890 -0.057423 -82.162379 -55.049067 177.718499 
157529212.500000 -42.282014 -99.346669 -0.057002 -84.130563 -0.057675 -84.156647 -55.275686 176.612120 
161279193.750000 -42.268063 -100.033255 -0.065637 -86.099906 -0.054869 -86.198215 -55.448867 169.220337 
165029175.000000 -42.177183 -102.677301 -0.061446 -88.147166 -0.059008 -88.195243 -56.071998 170.474455 
168779156.250000 -42.303787 -103.396953 -0.060096 -90.116204 -0.058982 -90.220056 -56.655152 166.156493 
172529137.500000 -42.355199 -104.304771 -0.059012 -92.113017 -0.063121 -92.142217 -56.441993 162.657066 
176279118.750000 -42.462677 -106.017151 -0.061192 -94.116981 -0.054874 -94.156324 -57.575568 156.842793 
180029100.000000 -42.519004 -107.846077 -0.066928 -96.172069 -0.059150 -96.187772 -58.954650 159.143790 
183779081.250000 -42.561753 -108.799294 -0.062782 -98.143054 -0.064363 -98.194375 -59.109718 156.466284 
187529062.500000 -42.816148 -109.047900 -0.072767 -100.170794 -0.058499 -100.236198 -60.767203 153.485832 
191279043.750000 -42.880244 -110.298548 -0.058817 -102.131643 -0.061333 -102.221681 -61.383567 148.289651 
195029025.000000 -43.053263 -111.149579 -0.067494 -104.120012 -0.063046 -104.236159 -62.561023 144.914426 
198779006.250000 -43.301504 -111.655989 -0.065702 -106.109958 -0.073555 -106.235094 -64.782832 144.912631 
202528987.500000 -43.464085 -112.742620 -0.071381 -108.131670 -0.067047 -108.218748 -69.371727 154.609863 
206278968.750000 -43.432953 -113.644940 -0.070909 -110.131007 -0.072187 -110.220506 -71.830945 -171.579504 
210028950.000000 -43.635120 -114.241565 -0.073455 -112.141306 -0.069107 -112.220995 -76.550329 -149.475238 
213778931.250000 -44.030461 -115.045244 -0.070861 -114.120359 -0.068657 -114.187245 -72.085136 -88.060316 
217528912.500000 -44.151995 -114.455989 -0.077089 -116.134288 -0.065180 -116.174272 -68.077740 -67.427074 
221278893.750000 -44.416513 -115.234248 -0.068778 -118.143191 -0.074081 -118.189916 -64.034004 -67.397899 
225028875.000000 -44.473015 -113.551619 -0.076359 -120.125147 -0.065645 -120.218646 -61.012427 -75.200578 
228778856.250000 -44.597704 -113.409328 -0.072907 -122.134722 -0.073967 -122.176610 -59.241135 -68.957546 
232528837.500000 -44.888719 -112.730001 -0.081208 -124.116924 -0.072340 -124.209404 -57.686061 -72.464452 
236278818.750000 -44.894883 -112.090201 -0.072847 -126.127194 -0.067371 -126.170662 -56.321750 -71.116028 
240028800.000000 -45.300138 -111.103769 -0.075354 -128.121564 -0.074575 -128.162377 -54.682250 -73.770530 
243778781.250000 -45.449088 -110.238377 -0.074681 -130.095511 -0.073728 -130.168635 -53.806602 -75.835466 
247528762.500000 -45.471032 -109.590685 -0.076022 -132.092625 -0.080443 -132.176107 -52.469237 -77.019796 
251278743.750000 -45.460794 -107.849285 -0.079404 -134.134028 -0.081412 -134.186251 -51.964508 -80.140109 
255028725.000000 -45.437095 -106.742308 -0.080321 -136.095708 -0.078860 -136.202845 -50.663688 -80.748482 
258778706.250000 -45.616491 -104.680778 -0.079252 -138.073383 -0.076727 -138.149939 -50.033282 -83.778090 
262528687.500000 -45.810732 -104.221231 -0.085667 -140.078668 -0.072327 -140.165985 -49.242571 -86.095332 
266278668.750000 -45.727351 -102.505601 -0.079701 -142.075490 -0.078152 -142.177319 -48.551681 -89.440571 
270028650.000000 -45.654398 -100.968331 -0.081379 -144.076179 -0.073921 -144.146621 -47.818142 -91.095504 
273778631.250000 -45.604968 -100.240320 -0.079890 -146.072066 -0.075021 -146.119159 -47.311723 -92.682736 
277528612.500000 -45.363161 -98.414163 -0.078763 -148.053345 -0.076598 -148.103816 -46.722789 -95.042104 
281278593.750000 -45.177258 -96.826724 -0.081661 -150.034002 -0.085019 -150.114951 -46.173205 -96.593206 
285028575.000000 -45.041584 -96.973641 -0.075804 -152.063849 -0.084541 -152.097222 -45.718221 -98.762612 
288778556.250000 -45.005319 -95.804678 -0.084079 -154.008188 -0.085545 -154.133065 -45.339465 -100.182842 
292528537.500000 -44.770361 -96.034515 -0.082624 -156.018871 -0.086089 -156.140073 -44.857054 -103.054438 
296278518.750000 -44.638487 -94.922707 -0.081523 -158.046512 -0.090497 -158.136909 -44.428604 -104.333036 
300028500.000000 -44.387433 -95.668696 -0.086660 -160.030171 -0.088941 -160.092356 -44.130130 -106.585994 
303778481.250000 -44.241354 -95.672274 -0.085507 -162.097776 -0.092216 -162.142896 -43.846605 -107.380165 
307528462.500000 -43.959829 -95.601232 -0.088070 -164.020151 -0.080564 -164.129753 -43.413635 -110.601048 
311278443.750000 -43.789211 -96.739465 -0.081894 -166.027115 -0.084724 -166.117066 -43.235247 -112.166618 
315028425.000000 -43.478862 -96.834433 -0.086661 -168.002194 -0.092248 -168.142469 -42.840288 -113.802069 
318778406.250000 -43.451657 -98.194778 -0.081850 -170.004904 -0.091045 -170.105432 -42.695124 -115.570196 
322528387.500000 -43.107560 -98.885485 -0.093772 -172.016876 -0.091995 -172.086322 -42.429127 -117.956637 
326278368.750000 -43.009954 -100.336984 -0.089839 -174.014112 -0.093247 -174.093495 -42.222168 -119.460396 
330028350.000000 -42.894769 -102.205001 -0.095030 -175.987433 -0.086483 -176.094060 -41.982207 -120.619389 
333778331.250000 -42.658800 -104.043443 -0.095460 -177.994848 -0.093276 -178.090848 -41.825390 -121.992877 
337528312.500000 -42.525500 -104.915412 -0.089790 179.966433 -0.092192 179.909873 -41.676689 -123.762675 
341278293.750000 -42.357729 -106.409160 -0.091330 177.974584 -0.093461 177.922798 -41.532861 -125.264114 
345028275.000000 -42.269065 -108.838829 -0.094129 176.003797 -0.096412 175.915895 -41.438402 -127.211013 
348778256.250000 -42.177931 -110.689174 -0.096584 174.014778 -0.093379 173.915690 -41.303417 -127.922593 
352528237.500000 -42.117003 -112.864431 -0.092142 172.016599 -0.092585 171.910886 -41.287321 -129.639644 
356278218.750000 -41.955615 -115.063614 -0.093856 169.996321 -0.096162 169.920021 -41.177928 -130.728221 
360028200.000000 -41.942239 -116.876762 -0.088392 167.945585 -0.099565 167.935261 -41.175192 -131.618473 
363778181.250000 -41.831489 -119.858691 -0.094883 166.027639 -0.098984 165.960754 -41.106695 -133.654719 
367528162.500000 -41.754549 -122.068825 -0.093112 164.040038 -0.101747 163.937231 -41.054733 -134.317239 
371278143.750000 -41.658868 -125.030220 -0.097501 161.992265 -0.099476 161.969430 -40.975016 -135.105907 
375028125.000000 -41.638092 -127.652472 -0.094281 160.028824 -0.099453 159.967481 -41.007226 -136.106461 
378778106.250000 -41.576705 -131.079915 -0.102265 158.040892 -0.105369 157.973460 -41.033373 -136.621290 
382528087.500000 -41.552609 -133.248763 -0.102263 156.005715 -0.098800 155.967480 -41.055799 -137.856849 
386278068.750000 -41.525149 -136.271188 -0.097725 154.015416 -0.108580 153.976550 -41.080497 -138.130074 
390028050.000000 -41.417498 -139.909451 -0.100192 152.050498 -0.106775 151.951254 -41.117125 -138.579075 
393778031.250000 -41.413259 -143.528742 -0.101276 150.053250 -0.107569 150.004796 -41.107121 -139.041213 
397528012.500000 -41.393147 -146.567908 -0.104259 148.069274 -0.109899 148.008507 -41.195714 -139.451756 
401277993.750000 -41.375894 -150.404405 -0.100983 146.063638 -0.109998 145.980870 -41.143291 -139.393973 
405027975.000000 -41.280838 -153.182908 -0.103091 144.050940 -0.101324 143.980691 -41.260600 -138.907382 
408777956.250000 -41.272515 -157.642920 -0.100799 142.110433 -0.108822 141.988361 -41.240426 -138.956379 
412527937.500000 -41.157134 -161.448576 -0.100353 140.089796 -0.102170 139.996672 -41.281589 -138.499518 
416277918.750000 -41.072261 -164.947124 -0.105540 138.060148 -0.102870 138.037907 -41.387684 -138.265574 
420027900.000000 -40.999849 -168.332368 -0.105918 136.090179 -0.105328 136.030024 -41.294437 -138.241897 
423777881.250000 -40.958461 -171.940656 -0.104667 134.081444 -0.105860 134.027493 -41.323273 -137.599395 
427527862.500000 -40.862404 -175.911159 -0.100824 132.088061 -0.107555 132.025636 -41.330892 -136.425512 
431277843.750000 -40.789219 179.946145 -0.109452 130.108464 -0.111228 130.025757 -41.370340 -136.490834 
435027825.000000 -40.572790 176.112741 -0.110025 128.139324 -0.104909 128.027409 -41.168058 -135.313813 
438777806.250000 -40.468085 171.940441 -0.108084 126.093367 -0.107281 126.043512 -41.134416 -135.011007 
442527787.500000 -40.271326 167.766842 -0.106296 124.077411 -0.108953 124.023019 -40.913683 -133.795916 
446277768.750000 -40.151376 164.723668 -0.104473 122.132004 -0.108558 122.059058 -40.798635 -133.233375 
450027750.000000 -39.971198 160.859794 -0.101869 120.092032 -0.109092 120.052130 -40.753428 -132.913683 
453777731.250000 -39.772291 157.190358 -0.106220 118.127046 -0.102783 118.056771 -40.604756 -132.638199 
457527712.500000 -39.595345 153.318328 -0.103427 116.121109 -0.107198 116.066289 -40.403718 -131.760223 
461277693.750000 -39.460966 149.109783 -0.104757 114.135351 -0.111978 114.063559 -40.174461 -130.870990 
465027675.000000 -39.179634 145.587370 -0.112418 112.133295 -0.111583 112.052684 -40.004884 -131.189268 
468777656.250000 -39.021499 142.770297 -0.111500 110.150161 -0.111202 110.083426 -39.715095 -130.604162 
472527637.500000 -38.832790 138.956981 -0.117658 108.142380 -0.109629 108.087774 -39.554301 -130.653656 
476277618.750000 -38.618587 135.405365 -0.116174 106.128929 -0.112275 106.103057 -39.378793 -130.715510 
480027600.000000 -38.495941 132.435358 -0.111402 104.127309 -0.119226 104.096435 -39.191763 -131.124571 
483777581.250000 -38.273576 129.006080 -0.113940 102.137569 -0.115161 102.083124 -38.899597 -131.150602 
487527562.500000 -38.049097 125.824875 -0.121766 100.151479 -0.110552 100.071686 -38.737458 -131.898007 
491277543.750000 -37.881492 122.263165 -0.112996 98.135113 -0.118195 98.070193 -38.498172 -132.548566 
495027525.000000 -37.622883 119.379147 -0.114459 96.165081 -0.116891 96.065220 -38.299459 -133.395540 
498777506.250000 -37.458837 116.264121 -0.122266 94.131859 -0.112448 94.093441 -38.119124 -134.281234 
502527487.500000 -37.253826 113.628237 -0.116374 92.203279 -0.122460 92.126741 -37.946353 -135.372125 
506277468.750000 -37.106949 110.846877 -0.119001 90.159539 -0.119291 90.093954 -37.741792 -135.834201 
510027450.000000 -36.948796 107.551431 -0.122803 88.197903 -0.122818 88.091438 -37.603534 -137.290610 
513777431.250000 -36.770173 105.287665 -0.118609 86.186161 -0.122714 86.113259 -37.389877 -137.819117 
517527412.500000 -36.611988 102.535027 -0.121162 84.188489 -0.121081 84.113685 -37.258581 -139.069756 
521277393.750000 -36.499954 100.226617 -0.116303 82.160609 -0.121719 82.134209 -37.120376 -140.761924 
525027375.000000 -36.321320 97.893825 -0.112588 80.220843 -0.123486 80.158048 -36.983537 -141.794848 
528777356.250000 -36.178644 95.062042 -0.119049 78.192231 -0.120162 78.158092 -36.823043 -143.535669 
532527337.500000 -36.064241 92.915306 -0.121741 76.235559 -0.129251 76.095471 -36.633295 -145.090007 
536277318.750000 -35.920173 90.310867 -0.122663 74.253378 -0.119971 74.151525 -36.543225 -146.493158 
540027300.000000 -35.797109 88.180949 -0.123826 72.224652 -0.126349 72.137317 -36.371633 -148.202494 
543777281.250000 -35.682786 86.097923 -0.129644 70.262843 -0.127399 70.158786 -36.358467 -150.184261 
547527262.500000 -35.656457 83.584054 -0.122786 68.269064 -0.122186 68.125487 -36.230919 -151.353937 
551277243.750000 -35.540352 81.555899 -0.125557 66.230241 -0.118701 66.180415 -36.135399 -153.463138 
555027225.000000 -35.470327 79.661499 -0.128922 64.285782 -0.131843 64.154264 -36.001488 -155.676190 
558777206.250000 -35.408834 77.461411 -0.124452 62.262443 -0.122044 62.186620 -36.033212 -157.363097 
562527187.500000 -35.384150 75.698136 -0.135726 60.249832 -0.124840 60.188673 -35.952813 -159.616126 
566277168.750000 -35.280550 73.855822 -0.132233 58.292706 -0.123044 58.221707 -35.849295 -161.469689 
570027150.000000 -35.286080 72.078212 -0.132506 56.278418 -0.124137 56.208594 -35.864559 -163.585558 
573777131.250000 -35.228305 70.050582 -0.125824 54.301052 -0.128778 54.212700 -35.801826 -165.597597 
577527112.500000 -35.198952 68.480572 -0.128284 52.274740 -0.124152 52.210576 -35.793421 -167.856805 
581277093.750000 -35.225390 67.164969 -0.129657 50.288508 -0.130216 50.248516 -35.742954 -170.137634 
585027075.000000 -35.253641 65.413345 -0.129625 48.317527 -0.129331 48.219370 -35.757459 -172.971877 
588777056.250000 -35.202963 63.309757 -0.128999 46.302694 -0.125721 46.259541 -35.738669 -175.029100 
592527037.500000 -35.302796 62.320740 -0.128376 44.334938 -0.136421 44.168520 -35.721969 -177.421393 
596277018.750000 -35.240376 60.396173 -0.126135 42.349589 -0.125491 42.259369 -35.700418 -179.973354 
600027000.000000 -35.365121 59.367099 -0.130199 40.330997 -0.129700 40.170073 -35.764902 177.616850 
603776981.250000 -35.354068 58.397320 -0.129705 38.318317 -0.130368 38.226812 -35.738132 175.183853 
607526962.500000 -35.431485 57.032720 -0.135257 36.283817 -0.135109 36.195025 -35.800541 172.236807 
611276943.750000 -35.460332 55.403205 -0.133494 34.308616 -0.127451 34.259955 -35.846461 170.172933 
615026925.000000 -35.505439 54.307854 -0.136899 32.321332 -0.127177 32.276592 -35.863166 167.075845 
618776906.250000 -35.570186 53.286287 -0.135670 30.332632 -0.131570 30.259248 -35.909555 164.353614 
622526887.500000 -35.628618 52.140372 -0.129893 28.371920 -0.126142 28.245724 -35.932364 161.192915 
626276868.750000 -35.730847 50.964347 -0.128858 26.353939 -0.124696 26.249327 -35.998591 158.141301 
630026850.000000 -35.771488 50.271822 -0.134476 24.351953 -0.128308 24.286811 -36.022833 155.631427 
633776831.250000 -35.872472 49.364435 -0.138184 22.350372 -0.126105 22.263951 -36.078202 152.470320 
637526812.500000 -35.896209 48.828176 -0.132734 20.334113 -0.132265 20.291320 -36.161562 149.604888 
641276793.750000 -35.974159 47.616248 -0.139889 18.400110 -0.127096 18.293556 -36.234516 146.126228 
645026775.000000 -36.061362 46.991517 -0.130980 16.427206 -0.131274 16.294572 -36.284392 143.321760 
648776756.250000 -36.184018 46.177878 -0.129604 14.417630 -0.131288 14.273902 -36.340634 140.063361 
652526737.500000 -36.202502 45.746133 -0.133605 12.409014 -0.133998 12.264170 -36.444974 137.158515 
656276718.750000 -36.278461 44.911895 -0.132602 10.433156 -0.133972 10.304846 -36.489724 133.772182 
660026700.000000 -36.374545 44.310213 -0.130766 8.401216 -0.130747 8.304317 -36.582703 130.710067 
663776681.250000 -36.451501 43.459058 -0.136140 6.421787 -0.136623 6.297038 -36.652575 127.272414 
667526662.500000 -36.555058 43.396376 -0.132014 4.414228 -0.133565 4.279680 -36.728864 123.947445 
671276643.750000 -36.617332 42.423585 -0.135437 2.430306 -0.137271 2.309922 -36.834532 120.797778 
675026625.000000 -36.668286 41.986659 -0.139008 0.392662 -0.136342 0.365898 -36.868207 117.548259 
678776606.250000 -36.748724 41.117341 -0.140396 -1.537307 -0.132926 -1.647885 -36.941172 113.971267 
682526587.500000 -36.782538 40.762521 -0.138869 -3.532557 -0.133849 -3.690643 -37.088910 110.835067 
686276568.750000 -36.877371 39.979910 -0.134682 -5.542194 -0.133995 -5.679142 -37.115312 107.476678 
690026550.000000 -36.975075 39.084504 -0.143083 -7.539082 -0.136282 -7.660372 -37.217059 104.217571 
693776531.250000 -37.014327 38.222297 -0.138800 -9.535052 -0.130350 -9.651703 -37.337336 101.032709 
697526512.500000 -37.105873 37.740014 -0.141067 -11.507898 -0.137135 -11.678512 -37.385058 97.789843 
701276493.750000 -37.174687 37.186441 -0.140822 -13.531953 -0.141809 -13.648717 -37.438201 94.598254 
