! Touchstone 1.1 file saved by VNA QT V0.2.3.0
! Sun Jul 18 20:59:45 2021
!
! HEWLETT PACKARD,8753D,0,6.14 OPT: 002 006 010 
! IF bandwidth: 3000 Hz
! Output power level: 0.000000 dBm
! Smoothing OFF
! Averaging OFF
! Correction ON
! Params: S11 S21 S12 S22
! Start frequency: 0.000030000 GHz
! Stop frequency:  6.000000000 GHz
! Points: 1601
!
# HZ S DB R 50
30000.000000 -42.420625 -31.271777 -0.001486 0.281562 -0.027213 0.549015 -49.702489 -21.347552 
3779981.250000 -53.004970 28.136593 -0.024866 -2.427628 -0.022701 -2.474399 -53.190627 28.176136 
7529962.500000 -50.850250 16.203227 -0.028729 -4.742080 -0.025725 -4.726358 -50.980609 18.197906 
11279943.750000 -50.016341 12.595936 -0.035579 -7.068832 -0.025685 -7.110225 -50.373663 11.500083 
15029925.000000 -48.976534 7.632703 -0.041846 -9.449613 -0.032918 -9.439815 -49.850536 7.982983 
18779906.250000 -48.397794 2.594407 -0.046890 -11.660222 -0.044649 -11.653582 -49.224660 5.057788 
22529887.500000 -47.693024 -1.308425 -0.046083 -14.010237 -0.042201 -13.967634 -48.681874 -0.222694 
26279868.750000 -46.959211 -6.592295 -0.052878 -16.268719 -0.045457 -16.254439 -48.330843 -5.045010 
30029850.000000 -46.444660 -11.547355 -0.059483 -18.575246 -0.048434 -18.576735 -48.090727 -9.205523 
33779831.250000 -45.784993 -15.741593 -0.053030 -20.893522 -0.056676 -20.865031 -47.800759 -15.194529 
37529812.500000 -45.214008 -19.849945 -0.056202 -23.141744 -0.045697 -23.129349 -47.506905 -19.784235 
41279793.750000 -44.800988 -25.411900 -0.064092 -25.448729 -0.058044 -25.462891 -47.375133 -25.383995 
45029775.000000 -44.326020 -29.034736 -0.066135 -27.717101 -0.057570 -27.782888 -47.360001 -29.798454 
48779756.250000 -43.933050 -33.194902 -0.064300 -30.044432 -0.062951 -30.073878 -47.257522 -34.199447 
52529737.500000 -43.429047 -37.135473 -0.069114 -32.243959 -0.063727 -32.329884 -47.173111 -39.528557 
56279718.750000 -43.117895 -41.468183 -0.067859 -34.552269 -0.063899 -34.686241 -47.054709 -44.163251 
60029700.000000 -42.739708 -44.296865 -0.072079 -36.895639 -0.073571 -36.938318 -46.964263 -49.139550 
63779681.250000 -42.475744 -49.104927 -0.070985 -39.157309 -0.071928 -39.255666 -47.000402 -53.454898 
67529662.500000 -42.190647 -51.889277 -0.075159 -41.479600 -0.073727 -41.508914 -46.951769 -57.456733 
71279643.750000 -41.828277 -54.688901 -0.074564 -43.755340 -0.077843 -43.834730 -46.935786 -63.261178 
75029625.000000 -41.383349 -58.662621 -0.085017 -46.041354 -0.077724 -46.077912 -46.943138 -67.620856 
78779606.250000 -41.166412 -61.623585 -0.084428 -48.312796 -0.081002 -48.441503 -47.000520 -72.276884 
82529587.500000 -40.751326 -63.978500 -0.085359 -50.635303 -0.083992 -50.713450 -46.925933 -76.375595 
86279568.750000 -40.608174 -68.160501 -0.078018 -52.933558 -0.080947 -53.038328 -46.771313 -82.045139 
90029550.000000 -40.258818 -70.514687 -0.085567 -55.160889 -0.086153 -55.287200 -46.844620 -85.362837 
93779531.250000 -40.124525 -73.174395 -0.089492 -57.486940 -0.082162 -57.572129 -46.877455 -91.242415 
97529512.500000 -39.814685 -76.467755 -0.086389 -59.820089 -0.088683 -59.884830 -46.784597 -95.539609 
101279493.750000 -39.611577 -79.155818 -0.089617 -62.043489 -0.088296 -62.144053 -46.906754 -99.568764 
105029475.000000 -39.422566 -81.212634 -0.089667 -64.384668 -0.092014 -64.449739 -46.820513 -106.221501 
108779456.250000 -39.186329 -84.321092 -0.097442 -66.664653 -0.093939 -66.722731 -46.735563 -108.845832 
112529437.500000 -39.076719 -87.427109 -0.097976 -68.919068 -0.095856 -69.030524 -46.632462 -112.927220 
116279418.750000 -38.922618 -89.983106 -0.099945 -71.205957 -0.092150 -71.313018 -46.536425 -118.056285 
120029400.000000 -38.762441 -92.075936 -0.093208 -73.467333 -0.091784 -73.610160 -46.548741 -122.768022 
123779381.250000 -38.537354 -94.819242 -0.105524 -75.813085 -0.099177 -75.922148 -46.716991 -124.513554 
127529362.500000 -38.375560 -97.126984 -0.098390 -78.137573 -0.100143 -78.149603 -46.638035 -127.534611 
131279343.750000 -38.363042 -99.616703 -0.104485 -80.391628 -0.102129 -80.491141 -46.688219 -131.087396 
135029325.000000 -38.318613 -102.399635 -0.103090 -82.645639 -0.109070 -82.772641 -46.537588 -134.676044 
138779306.250000 -38.213309 -104.812505 -0.106341 -84.957653 -0.108054 -84.985092 -46.506815 -139.067130 
142529287.500000 -38.135591 -106.648783 -0.105625 -87.262661 -0.112435 -87.350949 -46.582068 -141.163585 
146279268.750000 -38.083512 -109.703053 -0.106403 -89.541544 -0.114006 -89.619097 -46.571278 -144.228159 
150029250.000000 -38.085261 -111.859198 -0.105656 -91.791459 -0.110748 -91.849209 -46.773812 -148.210963 
153779231.250000 -38.033504 -114.054508 -0.114303 -94.120961 -0.113301 -94.163112 -46.655548 -151.531227 
157529212.500000 -38.003468 -116.433007 -0.107230 -96.403922 -0.120981 -96.453365 -46.582535 -153.419307 
161279193.750000 -37.937962 -118.083894 -0.117096 -98.667473 -0.113060 -98.770943 -46.717405 -156.734552 
165029175.000000 -37.922948 -121.017615 -0.118702 -100.975508 -0.116662 -101.063170 -46.645747 -157.897097 
168779156.250000 -37.925015 -122.969209 -0.117641 -103.254728 -0.112186 -103.329974 -46.883268 -159.644900 
172529137.500000 -38.018564 -124.774656 -0.116600 -105.547637 -0.120394 -105.576687 -46.758624 -163.605592 
176279118.750000 -38.052787 -126.932779 -0.121196 -107.829379 -0.120621 -107.898945 -46.957315 -164.242293 
180029100.000000 -38.098403 -129.550398 -0.124904 -110.156178 -0.112515 -110.224335 -46.920037 -164.962009 
183779081.250000 -38.093223 -131.069541 -0.124245 -112.443038 -0.122121 -112.514013 -46.908236 -166.537693 
187529062.500000 -38.221521 -132.549833 -0.130236 -114.729521 -0.121972 -114.813782 -47.204148 -167.380860 
191279043.750000 -38.241891 -135.050492 -0.123860 -116.996554 -0.127102 -117.095112 -47.118464 -169.499942 
195029025.000000 -38.317350 -136.999508 -0.136847 -119.231964 -0.128242 -119.420006 -47.320882 -170.770349 
198779006.250000 -38.505141 -138.714109 -0.134817 -121.550960 -0.133404 -121.674504 -47.233921 -171.625978 
202528987.500000 -38.523501 -140.461811 -0.135156 -123.861479 -0.131232 -123.938206 -47.286922 -171.686173 
206278968.750000 -38.594202 -142.603982 -0.134423 -126.116937 -0.131292 -126.229407 -47.262934 -171.629619 
210028950.000000 -38.689303 -144.459045 -0.142988 -128.419400 -0.134880 -128.526681 -47.362758 -172.819614 
213778931.250000 -38.844346 -146.723862 -0.138931 -130.679151 -0.141439 -130.834159 -47.350994 -173.127760 
217528912.500000 -38.982795 -147.842120 -0.141606 -132.936022 -0.139489 -133.039614 -47.591707 -174.044115 
221278893.750000 -39.126588 -150.014245 -0.135355 -135.241117 -0.144003 -135.379636 -47.534442 -173.471612 
225028875.000000 -39.170830 -151.208790 -0.139924 -137.528849 -0.137037 -137.671346 -47.246035 -174.052746 
228778856.250000 -39.314709 -152.879409 -0.147223 -139.834656 -0.144124 -139.926289 -47.386451 -173.015769 
232528837.500000 -39.468402 -154.278555 -0.149858 -142.110350 -0.141246 -142.199522 -47.249488 -174.119983 
236278818.750000 -39.473022 -155.812468 -0.143881 -144.412311 -0.137306 -144.504448 -47.473635 -173.501101 
240028800.000000 -39.713585 -157.941370 -0.147574 -146.672977 -0.148395 -146.746024 -47.146672 -173.360301 
243778781.250000 -39.841912 -159.698294 -0.144220 -148.927093 -0.148118 -149.052715 -47.154333 -173.752283 
247528762.500000 -39.900534 -161.063676 -0.146830 -151.231434 -0.151210 -151.365685 -47.007955 -173.111517 
251278743.750000 -40.044805 -162.637620 -0.154686 -153.549575 -0.152959 -153.638689 -46.986687 -173.435906 
255028725.000000 -40.131527 -164.200910 -0.156545 -155.789139 -0.147074 -155.910752 -46.745173 -173.141304 
258778706.250000 -40.330732 -165.648494 -0.151979 -158.080959 -0.155202 -158.172147 -46.671906 -174.786375 
262528687.500000 -40.445461 -167.730095 -0.162692 -160.354805 -0.148727 -160.478270 -46.587561 -174.502986 
266278668.750000 -40.527382 -169.348244 -0.157585 -162.657447 -0.152160 -162.758072 -46.321571 -175.191730 
270028650.000000 -40.602541 -171.091313 -0.154760 -164.969060 -0.153868 -165.029603 -46.186551 -176.310407 
273778631.250000 -40.709566 -173.039721 -0.159789 -167.206154 -0.160305 -167.285732 -46.252615 -176.754485 
277528612.500000 -40.750067 -174.439371 -0.164638 -169.477113 -0.157631 -169.579851 -46.077619 -177.733351 
281278593.750000 -40.868023 -175.714761 -0.163185 -171.783220 -0.161056 -171.886020 -45.988717 -178.796759 
285028575.000000 -40.933816 -177.967404 -0.160352 -174.061847 -0.165873 -174.136895 -45.991168 -179.531667 
288778556.250000 -41.009208 179.828153 -0.155363 -176.355488 -0.168977 -176.478382 -46.036750 178.803774 
292528537.500000 -41.031279 178.150703 -0.161624 -178.578322 -0.170838 -178.737350 -45.832084 177.609270 
296278518.750000 -41.046903 176.002437 -0.159039 179.157633 -0.172242 179.029703 -45.905454 177.038368 
300028500.000000 -41.070369 174.413023 -0.169115 176.862300 -0.161377 176.747347 -45.920834 175.452355 
303778481.250000 -41.089159 171.567244 -0.166596 174.546572 -0.168293 174.439833 -46.057341 173.803727 
307528462.500000 -41.090816 169.867487 -0.171851 172.268409 -0.164254 172.125930 -45.956566 171.488277 
311278443.750000 -41.012402 167.319691 -0.165990 169.986239 -0.166643 169.867808 -46.073385 169.448561 
315028425.000000 -40.890768 165.481390 -0.166286 167.702211 -0.170034 167.581819 -46.141826 168.771568 
318778406.250000 -40.886828 162.554461 -0.166984 165.448866 -0.171967 165.320526 -46.523779 165.330408 
322528387.500000 -40.791920 160.770971 -0.172437 163.145636 -0.175873 163.036195 -46.618551 164.288985 
326278368.750000 -40.683380 157.746873 -0.174017 160.884139 -0.175821 160.798791 -47.001544 162.277935 
330028350.000000 -40.536431 154.990831 -0.179547 158.582110 -0.171427 158.509225 -47.096730 159.960090 
333778331.250000 -40.402318 152.210139 -0.175399 156.315046 -0.174770 156.221373 -47.496772 157.738579 
337528312.500000 -40.320345 149.665821 -0.178399 154.032806 -0.175033 153.934430 -47.886158 154.460359 
341278293.750000 -40.113642 146.905694 -0.174821 151.765582 -0.179930 151.613644 -48.407707 154.224642 
345028275.000000 -39.987259 143.901624 -0.175082 149.487869 -0.185705 149.357300 -49.057886 151.296435 
348778256.250000 -39.768647 141.331467 -0.185807 147.174509 -0.181123 147.083912 -49.627999 147.543409 
352528237.500000 -39.637917 138.313143 -0.183457 144.891230 -0.180858 144.783179 -50.542487 145.196518 
356278218.750000 -39.307062 135.203346 -0.188219 142.640147 -0.186847 142.516590 -51.286954 141.273689 
360028200.000000 -39.185458 132.797267 -0.179813 140.319222 -0.185934 140.211354 -52.565934 137.498289 
363778181.250000 -38.992467 129.382868 -0.183404 138.083936 -0.192570 137.969468 -53.619872 131.346055 
367528162.500000 -38.777677 126.378117 -0.188856 135.783440 -0.191008 135.659763 -55.028906 125.307414 
371278143.750000 -38.466453 123.220087 -0.188057 133.458396 -0.192007 133.394469 -57.331073 124.126145 
375028125.000000 -38.252049 120.726976 -0.188006 131.219543 -0.190960 131.132119 -59.672593 107.228462 
378778106.250000 -37.982985 117.833089 -0.199313 128.956825 -0.202742 128.823330 -63.853452 86.069277 
382528087.500000 -37.805794 114.833687 -0.199155 126.655207 -0.195011 126.548015 -63.657864 46.882369 
386278068.750000 -37.533421 111.796063 -0.191018 124.356354 -0.194302 124.280229 -62.191787 3.335746 
390028050.000000 -37.256592 108.937674 -0.198465 122.094698 -0.193760 121.965583 -58.360501 -17.479020 
393778031.250000 -36.946254 105.798326 -0.198771 119.766184 -0.197796 119.737781 -56.076474 -25.069687 
397528012.500000 -36.734487 102.719870 -0.197338 117.549019 -0.192836 117.404578 -53.519276 -31.054853 
401277993.750000 -36.489113 100.211871 -0.202405 115.252278 -0.201323 115.153976 -51.977066 -38.317163 
405027975.000000 -36.204105 97.712548 -0.204929 112.980676 -0.202061 112.859958 -49.868284 -41.858971 
408777956.250000 -35.950143 94.453916 -0.200577 110.699505 -0.199778 110.571332 -48.880264 -47.711624 
412527937.500000 -35.672055 91.543942 -0.198782 108.424200 -0.197728 108.297492 -47.591315 -51.246121 
416277918.750000 -35.456766 89.060756 -0.205268 106.122706 -0.196765 106.039492 -46.526581 -52.986463 
420027900.000000 -35.232958 86.642992 -0.199929 103.860057 -0.202285 103.736732 -45.824323 -55.897297 
423777881.250000 -35.004831 83.542336 -0.207128 101.549445 -0.201898 101.476648 -44.848149 -59.111570 
427527862.500000 -34.785153 81.091112 -0.206368 99.267156 -0.207342 99.182935 -43.945882 -61.850942 
431277843.750000 -34.509542 78.273171 -0.203258 96.992696 -0.208105 96.863116 -43.249548 -63.473137 
435027825.000000 -34.276952 75.707297 -0.213848 94.756349 -0.203407 94.632088 -42.587047 -67.684018 
438777806.250000 -34.076448 72.827600 -0.207471 92.421878 -0.206466 92.366041 -41.913996 -69.508726 
442527787.500000 -33.798162 70.528500 -0.209223 90.161204 -0.210614 90.028663 -41.396017 -72.667986 
446277768.750000 -33.683595 67.915169 -0.215371 87.898806 -0.206905 87.750328 -40.913342 -75.367507 
450027750.000000 -33.440698 65.461053 -0.209600 85.589205 -0.214216 85.518547 -40.455558 -77.603604 
453777731.250000 -33.274654 62.905438 -0.209961 83.285140 -0.211405 83.182984 -39.952174 -80.079375 
457527712.500000 -33.086158 60.441630 -0.214531 81.034455 -0.213818 80.958989 -39.498475 -82.247726 
461277693.750000 -32.884658 57.738289 -0.214758 78.773021 -0.218283 78.651387 -39.086568 -85.218385 
465027675.000000 -32.714772 55.500235 -0.223007 76.477193 -0.219177 76.372583 -38.738605 -87.381130 
468777656.250000 -32.583414 53.167326 -0.222830 74.177814 -0.220308 74.093034 -38.392870 -89.931883 
472527637.500000 -32.440868 50.543128 -0.226545 71.907850 -0.223006 71.813535 -38.086865 -92.396529 
476277618.750000 -32.307194 47.981295 -0.229452 69.588943 -0.223550 69.515350 -37.809800 -94.497223 
480027600.000000 -32.176595 45.492916 -0.219831 67.345372 -0.230363 67.269641 -37.581320 -96.790784 
483777581.250000 -32.035679 43.198801 -0.223989 65.043156 -0.224520 64.974218 -37.318552 -99.349183 
487527562.500000 -31.903924 40.754840 -0.230784 62.806974 -0.220801 62.671328 -37.096596 -101.355193 
491277543.750000 -31.817873 38.114873 -0.229250 60.511200 -0.231686 60.357580 -36.882128 -103.728030 
495027525.000000 -31.689006 35.797763 -0.225316 58.240375 -0.225502 58.079074 -36.777926 -105.924160 
498777506.250000 -31.588249 33.243559 -0.230500 55.921492 -0.225603 55.860989 -36.587093 -108.171323 
502527487.500000 -31.538092 30.912110 -0.227832 53.715282 -0.233701 53.561916 -36.440676 -110.336994 
506277468.750000 -31.450187 28.464773 -0.232405 51.357581 -0.230955 51.282423 -36.265567 -112.587599 
510027450.000000 -31.380298 25.972620 -0.229054 49.124146 -0.233293 48.981013 -36.152086 -114.727356 
513777431.250000 -31.341937 23.849464 -0.238345 46.814997 -0.233010 46.719856 -36.001954 -116.841103 
517527412.500000 -31.258448 21.414938 -0.231294 44.575896 -0.230741 44.446410 -35.950614 -118.886789 
521277393.750000 -31.259998 19.004767 -0.229442 42.279727 -0.237600 42.183029 -35.916273 -120.887629 
525027375.000000 -31.237338 16.584738 -0.230650 40.016620 -0.237320 39.908186 -35.797478 -122.996898 
528777356.250000 -31.178869 14.102484 -0.240551 37.701870 -0.233492 37.638681 -35.819527 -124.871131 
532527337.500000 -31.172463 11.835083 -0.242934 35.447796 -0.246296 35.304730 -35.766920 -127.263266 
536277318.750000 -31.140484 9.257600 -0.244990 33.162300 -0.236904 33.020252 -35.710499 -129.068625 
540027300.000000 -31.119107 7.082109 -0.241641 30.849674 -0.244115 30.737994 -35.752161 -131.434307 
543777281.250000 -31.165601 4.510100 -0.244315 28.606728 -0.249925 28.418007 -35.756884 -132.809064 
547527262.500000 -31.166884 1.933251 -0.246340 26.326930 -0.243534 26.177424 -35.717232 -134.735705 
551277243.750000 -31.188276 -0.208030 -0.248196 23.999025 -0.238783 23.908474 -35.781503 -136.971165 
555027225.000000 -31.208658 -2.878768 -0.251343 21.784698 -0.247332 21.588271 -35.800858 -139.168456 
558777206.250000 -31.277513 -5.195516 -0.246991 19.470371 -0.238791 19.375034 -35.884745 -140.570796 
562527187.500000 -31.312064 -7.562239 -0.253038 17.174465 -0.240973 17.078410 -35.928870 -142.427030 
566277168.750000 -31.340193 -10.035427 -0.256389 14.936057 -0.242689 14.785479 -36.008559 -144.296636 
570027150.000000 -31.427253 -12.476236 -0.254215 12.603798 -0.240022 12.494493 -36.077289 -145.952972 
573777131.250000 -31.462980 -14.890319 -0.255834 10.342214 -0.253968 10.208226 -36.143106 -147.505690 
577527112.500000 -31.546865 -17.343185 -0.255352 8.064910 -0.246371 7.969325 -36.222351 -149.185467 
581277093.750000 -31.634620 -19.748246 -0.257355 5.773319 -0.251765 5.708086 -36.333696 -150.820819 
585027075.000000 -31.721555 -22.261077 -0.253891 3.520182 -0.246296 3.394558 -36.489630 -152.294633 
588777056.250000 -31.799534 -25.053364 -0.257314 1.244660 -0.242615 1.147237 -36.575375 -153.853399 
592527037.500000 -31.884576 -27.287943 -0.254723 -1.015572 -0.248149 -1.209154 -36.689321 -155.109377 
596277018.750000 -31.979348 -29.967758 -0.256223 -3.292012 -0.248893 -3.469481 -36.764153 -156.871604 
600027000.000000 -32.106987 -32.472037 -0.262243 -5.631693 -0.248827 -5.774869 -36.924268 -157.793406 
603776981.250000 -32.196336 -35.025013 -0.260942 -7.866362 -0.255038 -8.040976 -37.021205 -159.195239 
607526962.500000 -32.278749 -37.684869 -0.261949 -10.190246 -0.255591 -10.290673 -37.162370 -160.448248 
611276943.750000 -32.389583 -40.369824 -0.263074 -12.465470 -0.251646 -12.555749 -37.258947 -161.318034 
615026925.000000 -32.500841 -42.975761 -0.263736 -14.753196 -0.252465 -14.886311 -37.387131 -162.740558 
618776906.250000 -32.626530 -45.848140 -0.265945 -17.014052 -0.255934 -17.112526 -37.492642 -163.550158 
622526887.500000 -32.717010 -48.625832 -0.261177 -19.285709 -0.252864 -19.436340 -37.596890 -164.454153 
626276868.750000 -32.823781 -51.300598 -0.269645 -21.588393 -0.260300 -21.689997 -37.694134 -165.277764 
630026850.000000 -32.909403 -54.014182 -0.264921 -23.839124 -0.260114 -23.972916 -37.824381 -166.441399 
633776831.250000 -33.029585 -57.069357 -0.271821 -26.136624 -0.260954 -26.278180 -37.885686 -167.399176 
637526812.500000 -33.158873 -59.731574 -0.265890 -28.401250 -0.258657 -28.527075 -37.922112 -168.038787 
641276793.750000 -33.188244 -62.853790 -0.272227 -30.686827 -0.257645 -30.862438 -37.948160 -168.647760 
645026775.000000 -33.308075 -65.679318 -0.271428 -32.940524 -0.264843 -33.073594 -38.023954 -169.500122 
648776756.250000 -33.397967 -68.506058 -0.270111 -35.226088 -0.266604 -35.439586 -38.027332 -169.965033 
652526737.500000 -33.439839 -71.610519 -0.274030 -37.503676 -0.268786 -37.672834 -38.030093 -170.995221 
656276718.750000 -33.485556 -74.586418 -0.271091 -39.770463 -0.266028 -39.939920 -38.000534 -171.500356 
660026700.000000 -33.566281 -77.527141 -0.276030 -42.101520 -0.269654 -42.180267 -37.989624 -172.583544 
663776681.250000 -33.618354 -80.760866 -0.273603 -44.340313 -0.266135 -44.516820 -37.902327 -173.490371 
667526662.500000 -33.639816 -83.821706 -0.273926 -46.636067 -0.267917 -46.767607 -37.828271 -174.160051 
671276643.750000 -33.615004 -86.996300 -0.274770 -48.955327 -0.273945 -49.015069 -37.706865 -175.326441 
675026625.000000 -33.667605 -90.036900 -0.284546 -51.225067 -0.273018 -51.286087 -37.571702 -176.591568 
678776606.250000 -33.657355 -93.234592 -0.281592 -53.455932 -0.273043 -53.573981 -37.513839 -177.505990 
682526587.500000 -33.640054 -96.450738 -0.279299 -55.770561 -0.271211 -55.920168 -37.324774 -178.837375 
686276568.750000 -33.568973 -99.223263 -0.279718 -58.030028 -0.275672 -58.178476 -37.206935 179.615723 
690026550.000000 -33.523584 -102.434611 -0.287524 -60.305334 -0.279977 -60.495677 -37.009963 178.503007 
693776531.250000 -33.407497 -105.673086 -0.282633 -62.593969 -0.280111 -62.738785 -36.795814 176.199874 
697526512.500000 -33.344643 -109.017990 -0.284712 -64.883887 -0.284087 -65.067257 -36.645131 174.853648 
701276493.750000 -33.249323 -111.821466 -0.288879 -67.146529 -0.284478 -67.315509 -36.446404 173.041550 
