! Touchstone 1.1 file saved by VNA QT V0.2.3.0
! Sun Jul 18 21:26:55 2021
!
! HEWLETT PACKARD,8753D,0,6.14 OPT: 002 006 010 
! IF bandwidth: 3000 Hz
! Output power level: 0.000000 dBm
! Smoothing OFF
! Averaging OFF
! Correction ON
! Params: S11 S21 S12 S22
! Start frequency: 0.000030000 GHz
! Stop frequency:  6.000000000 GHz
! Points: 1601
!
# HZ S DB R 50
30000.000000 -40.765725 -35.764009 0.037176 -0.330803 0.013776 0.052373 -47.625458 -52.179927 
3779981.250000 -49.379902 17.362663 -0.045039 -2.857314 -0.046336 -2.790861 -49.606284 19.207828 
7529962.500000 -47.312740 3.229070 -0.053558 -5.511723 -0.050884 -5.474683 -47.540407 4.776615 
11279943.750000 -46.470571 -5.411688 -0.060363 -8.179903 -0.054777 -8.188829 -46.899576 -5.558989 
15029925.000000 -45.461796 -13.708175 -0.067507 -10.859969 -0.060649 -10.908670 -46.275168 -13.869754 
18779906.250000 -44.770698 -21.416986 -0.076046 -13.483933 -0.079406 -13.474731 -45.568832 -20.382409 
22529887.500000 -43.899130 -28.499615 -0.080176 -16.166956 -0.077342 -16.104605 -45.066478 -29.250279 
26279868.750000 -42.984352 -34.771899 -0.082486 -18.803369 -0.075740 -18.780772 -44.465201 -36.481134 
30029850.000000 -42.283764 -41.275853 -0.086879 -21.420320 -0.077509 -21.394194 -43.848831 -43.228933 
33779831.250000 -41.519194 -46.899915 -0.090701 -24.095783 -0.085542 -24.076699 -43.281142 -50.323553 
37529812.500000 -40.789664 -52.630715 -0.091770 -26.756297 -0.087605 -26.693014 -42.733808 -57.477282 
41279793.750000 -40.127487 -58.454252 -0.095512 -29.391844 -0.098463 -29.350047 -42.212425 -64.440657 
45029775.000000 -39.543888 -63.488277 -0.105120 -31.988499 -0.098496 -32.005008 -41.700227 -70.976615 
48779756.250000 -38.964897 -68.343149 -0.105254 -34.658103 -0.100283 -34.652643 -41.260068 -76.644814 
52529737.500000 -38.364724 -72.596426 -0.111893 -37.269129 -0.107806 -37.322054 -40.808304 -82.627283 
56279718.750000 -37.827002 -77.138686 -0.110969 -39.906477 -0.106280 -39.954469 -40.331872 -87.839402 
60029700.000000 -37.385840 -81.050605 -0.121737 -42.573080 -0.112691 -42.585637 -39.917657 -93.664118 
63779681.250000 -36.898680 -85.796157 -0.114650 -45.204211 -0.119555 -45.259482 -39.526875 -98.729442 
67529662.500000 -36.430632 -89.365983 -0.116417 -47.885809 -0.124293 -47.900987 -39.092310 -103.796299 
71279643.750000 -36.072236 -93.290519 -0.123479 -50.506440 -0.126651 -50.576522 -38.691904 -108.897205 
75029625.000000 -35.612614 -96.815012 -0.128551 -53.167724 -0.125217 -53.144294 -38.310733 -113.324403 
78779606.250000 -35.238325 -100.708510 -0.125833 -55.755897 -0.128195 -55.848277 -37.994522 -118.091879 
82529587.500000 -34.854097 -103.597274 -0.138914 -58.411587 -0.136072 -58.425195 -37.607849 -122.272321 
86279568.750000 -34.560237 -107.780950 -0.127381 -61.064828 -0.133981 -61.099586 -37.226844 -126.642774 
90029550.000000 -34.185487 -110.681783 -0.138960 -63.664582 -0.136372 -63.746332 -36.860756 -130.726818 
93779531.250000 -33.930030 -114.263419 -0.140255 -66.358310 -0.137988 -66.355160 -36.567521 -135.083279 
97529512.500000 -33.607499 -117.475825 -0.141178 -69.003192 -0.145393 -69.021083 -36.260000 -138.657343 
101279493.750000 -33.321101 -120.962888 -0.148157 -71.594861 -0.141327 -71.662278 -35.974305 -142.819354 
105029475.000000 -33.117964 -123.884262 -0.144464 -74.279275 -0.147570 -74.286440 -35.618784 -147.060373 
108779456.250000 -32.822765 -127.111913 -0.152503 -76.893878 -0.152819 -76.950029 -35.363785 -150.405743 
112529437.500000 -32.587873 -130.713391 -0.158178 -79.501325 -0.152484 -79.562571 -35.086660 -153.865214 
116279418.750000 -32.362383 -133.870912 -0.155272 -82.139512 -0.157628 -82.200271 -34.773471 -157.426421 
120029400.000000 -32.153930 -136.731911 -0.162525 -84.776377 -0.158265 -84.880859 -34.534634 -161.088894 
123779381.250000 -31.918366 -139.888161 -0.167588 -87.450051 -0.160187 -87.475401 -34.302367 -164.172622 
127529362.500000 -31.731868 -143.116604 -0.168337 -90.103399 -0.165906 -90.101588 -34.094982 -167.426447 
131279343.750000 -31.588484 -146.457237 -0.170766 -92.715115 -0.167034 -92.781760 -33.878855 -170.537234 
135029325.000000 -31.416264 -149.724823 -0.170838 -95.346837 -0.173257 -95.405663 -33.621269 -173.911402 
138779306.250000 -31.258754 -152.741766 -0.174701 -97.961059 -0.174100 -97.989327 -33.399235 -177.029119 
142529287.500000 -31.096098 -155.746512 -0.177936 -100.597290 -0.177665 -100.684118 -33.224339 179.792117 
146279268.750000 -30.966067 -159.108073 -0.182003 -103.252380 -0.177849 -103.275265 -33.010022 176.797263 
150029250.000000 -30.836790 -162.263012 -0.178052 -105.853709 -0.180960 -105.903706 -32.854697 173.558554 
153779231.250000 -30.713702 -165.363184 -0.188740 -108.537793 -0.188050 -108.551346 -32.657086 170.584350 
157529212.500000 -30.588182 -168.447115 -0.183029 -111.137515 -0.191568 -111.189975 -32.470568 167.815425 
161279193.750000 -30.490182 -171.411740 -0.191737 -113.794784 -0.186678 -113.799598 -32.296973 164.703620 
165029175.000000 -30.347274 -174.640146 -0.198947 -116.400234 -0.193875 -116.459502 -32.145260 162.198109 
168779156.250000 -30.269379 -177.682320 -0.195095 -119.025772 -0.195357 -119.096291 -32.012159 159.200214 
172529137.500000 -30.202340 179.174016 -0.199503 -121.667046 -0.205044 -121.689603 -31.834142 156.286058 
176279118.750000 -30.130213 175.951874 -0.202021 -124.297631 -0.206132 -124.359501 -31.713612 153.557315 
180029100.000000 -30.024611 172.712926 -0.204902 -126.962992 -0.204238 -127.004516 -31.577976 150.993297 
183779081.250000 -29.952675 169.827959 -0.211928 -129.610117 -0.210398 -129.611069 -31.428548 148.193678 
187529062.500000 -29.903383 166.534043 -0.218278 -132.227374 -0.214369 -132.271760 -31.332846 145.572403 
191279043.750000 -29.794097 163.398863 -0.207652 -134.820184 -0.213449 -134.929039 -31.201370 142.753097 
195029025.000000 -29.745042 160.379585 -0.224027 -137.441718 -0.218909 -137.574811 -31.071858 139.968663 
198779006.250000 -29.692314 157.134714 -0.214181 -140.060421 -0.222627 -140.177432 -30.960183 137.343734 
202528987.500000 -29.628646 154.102810 -0.220692 -142.747003 -0.220831 -142.777846 -30.871057 134.841967 
206278968.750000 -29.565303 151.065284 -0.227490 -145.339130 -0.221180 -145.411479 -30.757554 132.260626 
210028950.000000 -29.508884 147.916553 -0.228567 -147.969119 -0.229837 -148.023164 -30.644244 129.500345 
213778931.250000 -29.455994 144.665333 -0.235261 -150.596055 -0.236272 -150.666519 -30.554160 126.803963 
217528912.500000 -29.411372 141.749725 -0.231960 -153.194009 -0.238824 -153.275803 -30.476171 124.125441 
221278893.750000 -29.351669 138.531065 -0.234983 -155.858754 -0.238322 -155.907954 -30.390729 121.558600 
225028875.000000 -29.312583 135.702163 -0.239808 -158.462280 -0.236069 -158.576273 -30.281068 118.977810 
228778856.250000 -29.257299 132.597759 -0.241726 -161.086337 -0.244234 -161.168094 -30.208947 116.239717 
232528837.500000 -29.197003 129.501001 -0.250105 -163.737204 -0.241529 -163.787402 -30.118232 113.449747 
236278818.750000 -29.128479 126.676403 -0.243999 -166.377242 -0.241956 -166.428601 -30.054751 110.839137 
240028800.000000 -29.078475 123.518530 -0.246917 -168.958199 -0.248807 -169.003426 -29.959737 108.213042 
243778781.250000 -29.024783 120.510570 -0.250864 -171.604681 -0.251357 -171.651502 -29.892837 105.541926 
247528762.500000 -28.941747 117.629585 -0.247361 -174.218876 -0.259369 -174.323108 -29.824587 102.834439 
251278743.750000 -28.898462 114.694133 -0.260009 -176.863543 -0.259051 -176.946878 -29.748139 100.018092 
255028725.000000 -28.829318 111.684760 -0.264428 -179.450205 -0.260448 -179.538746 -29.678652 97.400538 
258778706.250000 -28.769187 108.801999 -0.264214 177.904989 -0.264039 177.825666 -29.614659 94.669750 
262528687.500000 -28.681249 105.937647 -0.269974 175.314100 -0.260627 175.181743 -29.533930 91.772212 
266278668.750000 -28.607999 102.979391 -0.269362 172.644562 -0.271138 172.566648 -29.448271 88.991330 
270028650.000000 -28.517516 100.187055 -0.268847 170.014064 -0.272618 169.978537 -29.391106 86.185711 
273778631.250000 -28.429057 97.351457 -0.270516 167.414648 -0.272374 167.361994 -29.323584 83.361134 
277528612.500000 -28.348479 94.559566 -0.273124 164.828915 -0.272148 164.709120 -29.244592 80.406954 
281278593.750000 -28.253589 91.862920 -0.279479 162.161771 -0.282009 162.089973 -29.178256 77.549964 
285028575.000000 -28.170742 89.020106 -0.276265 159.525714 -0.286624 159.455800 -29.089083 74.547014 
288778556.250000 -28.070502 86.369460 -0.282473 156.917155 -0.290908 156.826575 -29.025593 71.546491 
292528537.500000 -27.969925 83.596369 -0.281994 154.340496 -0.291896 154.242858 -28.933825 68.588537 
296278518.750000 -27.861778 80.829049 -0.283414 151.679912 -0.291354 151.571513 -28.859893 65.472520 
300028500.000000 -27.768868 78.184718 -0.290172 149.042755 -0.292184 148.952509 -28.784014 62.350603 
303778481.250000 -27.642688 75.446844 -0.291131 146.447339 -0.295186 146.320970 -28.706305 59.175142 
307528462.500000 -27.532163 72.886179 -0.295191 143.818614 -0.292672 143.682773 -28.612518 56.017455 
311278443.750000 -27.392625 70.217211 -0.295652 141.166153 -0.291855 141.112007 -28.528955 52.799264 
315028425.000000 -27.280758 67.664123 -0.299648 138.542167 -0.306836 138.459125 -28.444217 49.771615 
318778406.250000 -27.166902 64.953123 -0.295897 135.927491 -0.305874 135.808156 -28.342830 46.316634 
322528387.500000 -27.053600 62.461707 -0.307164 133.294868 -0.306349 133.202768 -28.261354 43.279443 
326278368.750000 -26.913076 59.852533 -0.310730 130.707045 -0.306961 130.616423 -28.183047 39.902489 
330028350.000000 -26.762411 57.273928 -0.317693 128.035803 -0.306888 127.991595 -28.058812 36.597947 
333778331.250000 -26.633596 54.607921 -0.312380 125.423686 -0.318582 125.350437 -27.968275 33.335055 
337528312.500000 -26.520424 52.195678 -0.314014 122.768885 -0.317335 122.724765 -27.852632 29.817188 
341278293.750000 -26.376502 49.635810 -0.314796 120.165865 -0.321721 120.058169 -27.771850 26.574618 
345028275.000000 -26.244791 47.093861 -0.321265 117.571276 -0.325691 117.475978 -27.651078 23.138343 
348778256.250000 -26.111826 44.493966 -0.328356 114.914651 -0.323913 114.857029 -27.533833 19.777727 
352528237.500000 -25.996366 41.959347 -0.330499 112.316115 -0.330131 112.197370 -27.430285 16.312649 
356278218.750000 -25.841732 39.501821 -0.331780 109.667266 -0.332754 109.578908 -27.309794 13.003738 
360028200.000000 -25.740973 36.988417 -0.329549 106.990968 -0.341553 106.918209 -27.186474 9.519853 
363778181.250000 -25.593878 34.359556 -0.335651 104.461609 -0.335400 104.380492 -27.066175 6.140366 
367528162.500000 -25.466103 31.745864 -0.341222 101.807828 -0.342265 101.703372 -26.953447 2.841017 
371278143.750000 -25.320973 29.293164 -0.342990 99.166576 -0.347082 99.124850 -26.852442 -0.606155 
375028125.000000 -25.218408 26.828855 -0.339837 96.582153 -0.341188 96.504470 -26.716449 -3.941032 
378778106.250000 -25.084338 24.219514 -0.350719 93.962910 -0.346085 93.849539 -26.607576 -7.424351 
382528087.500000 -24.981077 21.664576 -0.355157 91.306133 -0.347364 91.243070 -26.454854 -10.656071 
386278068.750000 -24.857027 19.101135 -0.350158 88.685514 -0.358547 88.636853 -26.359732 -14.053882 
390028050.000000 -24.729927 16.523494 -0.360674 86.089174 -0.354646 85.989649 -26.233809 -17.484310 
393778031.250000 -24.613659 14.017309 -0.364768 83.461253 -0.361600 83.375570 -26.113134 -20.676531 
397528012.500000 -24.497771 11.451659 -0.363766 80.848221 -0.362126 80.713299 -25.991343 -23.956296 
401277993.750000 -24.408146 8.898259 -0.362719 78.238850 -0.365702 78.119232 -25.894497 -27.079497 
405027975.000000 -24.300096 6.428497 -0.364854 75.622319 -0.366885 75.513412 -25.755078 -30.434053 
408777956.250000 -24.189704 3.705975 -0.366761 73.046389 -0.370042 72.868026 -25.655708 -33.491278 
412527937.500000 -24.076710 1.223261 -0.369038 70.382257 -0.372678 70.265144 -25.554703 -36.721577 
416277918.750000 -23.991548 -1.301324 -0.375543 67.707655 -0.374830 67.638534 -25.421823 -39.846058 
420027900.000000 -23.912397 -3.957101 -0.375455 65.158040 -0.374090 65.017294 -25.323461 -42.751575 
423777881.250000 -23.818269 -6.657121 -0.376723 62.492519 -0.375763 62.409324 -25.216590 -45.920024 
427527862.500000 -23.735247 -9.236395 -0.376799 59.908128 -0.389114 59.793318 -25.108324 -48.960312 
431277843.750000 -23.635804 -11.863680 -0.378556 57.277503 -0.385869 57.176909 -25.003735 -51.811434 
435027825.000000 -23.563281 -14.394977 -0.388970 54.699978 -0.388637 54.589435 -24.921959 -54.795920 
438777806.250000 -23.491870 -17.159899 -0.392569 52.010458 -0.386649 51.924915 -24.818738 -57.716818 
442527787.500000 -23.414682 -19.657745 -0.391244 49.388786 -0.386309 49.339618 -24.735309 -60.643479 
446277768.750000 -23.348149 -22.458444 -0.394173 46.845274 -0.388440 46.730222 -24.651195 -63.481702 
450027750.000000 -23.295206 -25.128618 -0.388352 44.169909 -0.394460 44.096862 -24.559883 -66.192068 
453777731.250000 -23.230050 -27.815608 -0.396209 41.542653 -0.400511 41.455325 -24.484726 -68.934219 
457527712.500000 -23.170777 -30.559574 -0.392621 38.947796 -0.402729 38.865181 -24.409208 -71.671266 
461277693.750000 -23.106720 -33.296078 -0.398962 36.340447 -0.408042 36.184478 -24.341077 -74.387659 
465027675.000000 -23.059411 -36.053884 -0.408104 33.707349 -0.408246 33.593492 -24.268569 -77.030958 
468777656.250000 -23.016346 -38.750867 -0.407652 31.091983 -0.411578 31.013435 -24.203998 -79.623467 
472527637.500000 -22.979592 -41.584045 -0.408098 28.466831 -0.412307 28.369304 -24.137876 -82.082428 
476277618.750000 -22.933733 -44.389042 -0.411179 25.832065 -0.413944 25.726844 -24.087307 -84.672045 
480027600.000000 -22.893881 -47.338361 -0.412902 23.265043 -0.423352 23.178824 -24.020599 -87.109851 
483777581.250000 -22.870010 -50.142636 -0.415512 20.610573 -0.415126 20.554757 -23.959500 -89.569005 
487527562.500000 -22.839384 -53.010084 -0.420493 18.020568 -0.416129 17.907079 -23.896982 -92.030380 
491277543.750000 -22.817768 -55.887747 -0.418380 15.398985 -0.424459 15.280562 -23.843986 -94.413840 
495027525.000000 -22.793217 -58.781871 -0.419197 12.834522 -0.421155 12.694440 -23.787076 -96.782901 
498777506.250000 -22.773667 -61.708819 -0.422846 10.134740 -0.423410 10.072002 -23.738288 -99.154533 
502527487.500000 -22.774140 -64.613476 -0.423362 7.585909 -0.428194 7.456750 -23.677551 -101.485365 
506277468.750000 -22.740714 -67.568686 -0.429712 4.907670 -0.420766 4.821559 -23.636637 -103.868651 
510027450.000000 -22.743675 -70.501437 -0.425615 2.296041 -0.423380 2.203586 -23.590523 -106.154196 
513777431.250000 -22.737651 -73.439049 -0.431866 -0.356509 -0.427922 -0.400432 -23.554377 -108.532769 
517527412.500000 -22.726099 -76.503569 -0.434515 -2.942452 -0.431007 -3.033262 -23.513720 -110.730858 
521277393.750000 -22.731998 -79.542537 -0.432215 -5.610385 -0.431878 -5.595395 -23.473927 -112.949424 
525027375.000000 -22.723333 -82.520372 -0.429579 -8.173752 -0.433117 -8.217956 -23.426671 -115.239440 
528777356.250000 -22.723090 -85.635698 -0.438311 -10.796342 -0.437437 -10.885110 -23.395025 -117.455168 
532527337.500000 -22.732408 -88.688661 -0.442394 -13.440057 -0.446715 -13.526378 -23.366628 -119.622651 
536277318.750000 -22.571739 -91.675353 -0.434751 -16.032258 -0.435992 -16.176220 -23.114918 -121.173001 
540027300.000000 -22.546543 -94.599626 -0.442865 -18.638599 -0.443450 -18.799218 -23.062904 -123.510668 
543777281.250000 -22.555356 -97.809026 -0.447615 -21.250315 -0.449708 -21.437575 -22.993141 -125.904898 
547527262.500000 -22.539995 -100.786215 -0.447131 -23.868658 -0.444075 -24.040966 -22.962277 -128.049148 
551277243.750000 -22.569086 -104.012017 -0.449006 -26.507410 -0.438029 -26.611106 -22.919937 -130.313959 
555027225.000000 -22.554872 -107.186399 -0.452571 -29.089135 -0.456802 -29.307357 -22.893409 -132.389800 
558777206.250000 -22.578065 -110.419049 -0.445373 -31.734590 -0.450463 -31.837698 -22.861113 -134.634763 
562527187.500000 -22.561607 -113.560129 -0.459795 -34.381386 -0.457873 -34.491151 -22.832596 -136.934050 
566277168.750000 -22.587519 -116.580851 -0.462218 -36.964684 -0.458308 -37.090722 -22.808937 -139.116656 
570027150.000000 -22.581496 -119.724446 -0.459165 -39.603293 -0.454838 -39.689738 -22.775916 -141.429939 
573777131.250000 -22.598725 -122.941931 -0.461751 -42.218987 -0.470907 -42.363713 -22.761183 -143.625702 
577527112.500000 -22.627205 -126.173064 -0.464837 -44.853911 -0.466639 -44.928245 -22.708735 -145.998590 
581277093.750000 -22.599050 -129.247300 -0.467962 -47.486492 -0.477484 -47.544137 -22.701149 -148.037618 
585027075.000000 -22.580639 -132.248953 -0.471475 -50.053083 -0.475801 -50.231320 -22.648224 -150.391917 
588777056.250000 -22.620412 -135.466013 -0.472202 -52.682205 -0.471372 -52.800028 -22.624762 -152.781710 
592527037.500000 -22.608295 -138.533117 -0.474945 -55.285457 -0.482415 -55.516323 -22.606981 -154.971163 
596277018.750000 -22.629641 -141.802230 -0.476094 -57.900248 -0.477816 -58.089200 -22.571461 -157.127858 
600027000.000000 -22.635585 -144.709422 -0.478173 -60.551873 -0.487594 -60.722644 -22.560887 -159.428839 
603776981.250000 -22.617282 -147.914450 -0.484556 -63.153826 -0.486652 -63.329089 -22.564910 -161.747985 
607526962.500000 -22.628459 -150.812083 -0.489472 -65.792583 -0.493870 -65.947872 -22.539012 -164.161980 
611276943.750000 -22.631344 -153.822685 -0.492810 -68.392752 -0.492358 -68.521261 -22.556511 -166.313824 
615026925.000000 -22.627755 -156.893455 -0.493176 -71.053548 -0.497482 -71.165133 -22.516163 -168.833235 
618776906.250000 -22.569942 -159.851467 -0.496535 -73.638042 -0.501610 -73.792257 -22.468376 -171.209901 
622526887.500000 -22.581587 -162.986823 -0.499741 -76.286281 -0.504275 -76.385775 -22.448447 -173.501747 
626276868.750000 -22.567748 -165.784222 -0.502380 -78.881181 -0.501598 -79.048284 -22.443693 -175.930889 
630026850.000000 -22.545750 -168.764769 -0.498270 -81.483885 -0.509187 -81.615554 -22.428178 -178.450437 
633776831.250000 -22.529020 -171.594459 -0.508692 -84.093859 -0.511203 -84.256191 -22.396608 179.314511 
637526812.500000 -22.531478 -174.327537 -0.502474 -86.735695 -0.504693 -86.864782 -22.371794 176.637924 
641276793.750000 -22.479253 -177.169684 -0.514869 -89.335785 -0.509160 -89.458598 -22.344299 174.028756 
645026775.000000 -22.444516 179.994208 -0.508149 -91.954362 -0.508792 -92.045408 -22.313457 171.672215 
648776756.250000 -22.465272 177.246901 -0.512475 -94.578802 -0.517840 -94.693359 -22.295062 168.917287 
652526737.500000 -22.404298 174.673773 -0.512954 -97.189897 -0.520567 -97.353448 -22.295865 166.494744 
656276718.750000 -22.369212 171.795188 -0.520930 -99.802343 -0.522350 -99.943439 -22.295940 163.787510 
660026700.000000 -22.335842 169.135429 -0.519943 -102.434977 -0.522458 -102.514709 -22.242423 161.214305 
663776681.250000 -22.320907 166.572453 -0.522632 -105.008212 -0.527892 -105.179177 -22.231650 158.484065 
667526662.500000 -22.275005 163.679699 -0.522573 -107.651572 -0.526420 -107.803982 -22.182963 155.916532 
671276643.750000 -22.217756 161.078787 -0.528664 -110.246334 -0.530391 -110.365483 -22.157289 153.115424 
675026625.000000 -22.187972 158.606381 -0.535331 -112.886516 -0.532875 -112.972535 -22.131478 150.296352 
678776606.250000 -22.183530 155.828637 -0.534223 -115.463985 -0.530911 -115.638995 -22.099759 147.810809 
682526587.500000 -22.118002 153.452412 -0.535264 -118.092178 -0.534863 -118.301763 -22.107361 144.866482 
686276568.750000 -22.095578 150.881085 -0.539107 -120.685525 -0.537748 -120.875068 -22.069177 142.246403 
690026550.000000 -22.172351 148.352229 -0.541822 -123.352491 -0.542852 -123.477380 -22.031249 139.249990 
693776531.250000 -22.118020 145.831073 -0.543931 -125.932391 -0.548339 -126.082420 -22.058941 136.188165 
697526512.500000 -22.080274 143.292287 -0.545538 -128.498137 -0.551213 -128.713928 -22.012615 133.349400 
701276493.750000 -22.045787 140.831941 -0.549038 -131.145975 -0.553535 -131.315656 -22.017484 130.571987 
705026475.000000 -22.013457 138.370237 -0.556611 -133.742316 -0.554767 -133.921860 -22.015016 127.596490 
