! Touchstone 1.1 file saved by VNA QT V0.2.3.0
! Sun Jul 18 21:11:33 2021
!
! HEWLETT PACKARD,8753D,0,6.14 OPT: 002 006 010 
! IF bandwidth: 3000 Hz
! Output power level: 0.000000 dBm
! Smoothing OFF
! Averaging OFF
! Correction ON
! Params: S11 S21 S12 S22
! Start frequency: 0.000030000 GHz
! Stop frequency:  6.000000000 GHz
! Points: 1601
!
# HZ S DB R 50
30000.000000 -42.300090 -35.806705 0.022803 -0.167419 0.002161 0.174810 -49.574184 -41.372232 
3779981.250000 -52.641098 27.152888 -0.032874 -2.382437 -0.025367 -2.390908 -52.781129 28.413391 
7529962.500000 -50.505522 15.594452 -0.031998 -4.736825 -0.031201 -4.715259 -50.588902 18.126493 
11279943.750000 -49.660845 12.125513 -0.040072 -7.086669 -0.042242 -7.028253 -50.040611 11.983208 
15029925.000000 -48.688912 7.742414 -0.045508 -9.346736 -0.040530 -9.416114 -49.544458 8.615894 
18779906.250000 -48.096001 3.746224 -0.056447 -11.615737 -0.051322 -11.614177 -48.949074 5.943294 
22529887.500000 -47.489926 -0.530651 -0.056429 -13.990998 -0.050537 -13.957757 -48.527681 1.896398 
26279868.750000 -46.743089 -5.208944 -0.053304 -16.284201 -0.056206 -16.231131 -48.174217 -3.245273 
30029850.000000 -46.343159 -10.556428 -0.064896 -18.546365 -0.051567 -18.531732 -47.840302 -7.024732 
33779831.250000 -45.621356 -14.007765 -0.059562 -20.849679 -0.060128 -20.800241 -47.641391 -11.153022 
37529812.500000 -45.109743 -18.427169 -0.063985 -23.156033 -0.049071 -23.054744 -47.313555 -16.862628 
41279793.750000 -44.691409 -23.425466 -0.064251 -25.421919 -0.065082 -25.381621 -47.305388 -22.041400 
45029775.000000 -44.232814 -27.726743 -0.069115 -27.679654 -0.062961 -27.700136 -47.274580 -26.747146 
48779756.250000 -43.890991 -31.665210 -0.072849 -29.999673 -0.067295 -29.978528 -47.177381 -31.046192 
52529737.500000 -43.330886 -35.056721 -0.070637 -32.254464 -0.067640 -32.246160 -47.232744 -35.461542 
56279718.750000 -43.008756 -39.354232 -0.075675 -34.570659 -0.071168 -34.595141 -47.054158 -39.968100 
60029700.000000 -42.656289 -42.263209 -0.081437 -36.825067 -0.072079 -36.842746 -47.066754 -44.546734 
63779681.250000 -42.414729 -47.018276 -0.078554 -39.179788 -0.077961 -39.215298 -47.108461 -48.202907 
67529662.500000 -42.090358 -49.505575 -0.072848 -41.475541 -0.079558 -41.484065 -47.119368 -53.484801 
71279643.750000 -41.825793 -52.891422 -0.082044 -43.729299 -0.078474 -43.794713 -47.248151 -58.024304 
75029625.000000 -41.428459 -56.123255 -0.085719 -46.061420 -0.081646 -46.028467 -47.249824 -62.193378 
78779606.250000 -41.172096 -59.290153 -0.085054 -48.349304 -0.083140 -48.414840 -47.408784 -66.787099 
82529587.500000 -40.732123 -61.867542 -0.088411 -50.634779 -0.087614 -50.611672 -47.378008 -70.881199 
86279568.750000 -40.681417 -65.108250 -0.089635 -52.935415 -0.081229 -52.935251 -47.296499 -75.873962 
90029550.000000 -40.276421 -67.802117 -0.089753 -55.169647 -0.083825 -55.224787 -47.393509 -79.076644 
93779531.250000 -40.116137 -70.565955 -0.095987 -57.524604 -0.084997 -57.522578 -47.533315 -84.799683 
97529512.500000 -39.831021 -73.397254 -0.093060 -59.814932 -0.092538 -59.823069 -47.478241 -88.322725 
101279493.750000 -39.645058 -76.138047 -0.095638 -62.084439 -0.093841 -62.084719 -47.746128 -92.553534 
105029475.000000 -39.437995 -78.106462 -0.096885 -64.373595 -0.087695 -64.406573 -47.707684 -99.327599 
108779456.250000 -39.185290 -80.917583 -0.101254 -66.696184 -0.095276 -66.720862 -47.769693 -101.621216 
112529437.500000 -39.045208 -83.657376 -0.104659 -68.940000 -0.100076 -68.989538 -47.740006 -105.037816 
116279418.750000 -38.917485 -86.280585 -0.103592 -71.205247 -0.094722 -71.241950 -47.734308 -110.378040 
120029400.000000 -38.721870 -88.521225 -0.101767 -73.502235 -0.103432 -73.589390 -47.704019 -113.999866 
123779381.250000 -38.488712 -90.904571 -0.111915 -75.842615 -0.099630 -75.904987 -47.896961 -116.642390 
127529362.500000 -38.379899 -93.089408 -0.110215 -78.164605 -0.105236 -78.180526 -47.914515 -119.325549 
131279343.750000 -38.314465 -95.629989 -0.112746 -80.416534 -0.108258 -80.475391 -47.967757 -122.188019 
135029325.000000 -38.266042 -98.315228 -0.104553 -82.706843 -0.114033 -82.777417 -47.936465 -126.380744 
138779306.250000 -38.146980 -100.595250 -0.107701 -84.958638 -0.107708 -85.040381 -48.128482 -129.463130 
142529287.500000 -38.022549 -102.418596 -0.111830 -87.266023 -0.112922 -87.343707 -48.122232 -132.028599 
146279268.750000 -37.973922 -105.155112 -0.113414 -89.567748 -0.112889 -89.578403 -48.092141 -135.559109 
150029250.000000 -37.970005 -107.317384 -0.110501 -91.788915 -0.109121 -91.852406 -48.390647 -139.374569 
153779231.250000 -37.921497 -109.520440 -0.113118 -94.081326 -0.113301 -94.163112 -48.323904 -142.486133 
157529212.500000 -37.850806 -111.858452 -0.110665 -96.424286 -0.121343 -96.432222 -48.257731 -143.552146 
161279193.750000 -37.799107 -113.384590 -0.119964 -98.731336 -0.115144 -98.751551 -48.440062 -147.245037 
165029175.000000 -37.785704 -116.059413 -0.121766 -100.983040 -0.120560 -101.060973 -48.399011 -148.089822 
168779156.250000 -37.772449 -117.990909 -0.117537 -103.334698 -0.115996 -103.346857 -48.605366 -149.603472 
172529137.500000 -37.784866 -119.829436 -0.118841 -105.573831 -0.121599 -105.600993 -48.626059 -153.006146 
176279118.750000 -37.838089 -121.899714 -0.119895 -107.867594 -0.121611 -107.878697 -48.864041 -152.667073 
180029100.000000 -37.874440 -124.086367 -0.129078 -110.173849 -0.117500 -110.176018 -48.747523 -153.115509 
183779081.250000 -37.857025 -125.963024 -0.125768 -112.427996 -0.125669 -112.485313 -48.756613 -155.655499 
187529062.500000 -37.975124 -127.591813 -0.135049 -114.728503 -0.122800 -114.785049 -49.002879 -155.098974 
191279043.750000 -37.950554 -129.866354 -0.125758 -117.018863 -0.126144 -117.091879 -48.996696 -157.196588 
195029025.000000 -38.051078 -131.781468 -0.141435 -119.265201 -0.133407 -119.374003 -49.093078 -158.876436 
198779006.250000 -38.187394 -133.274934 -0.136371 -121.561423 -0.137041 -121.655913 -49.121118 -158.175391 
202528987.500000 -38.248423 -135.360028 -0.144709 -123.882378 -0.131378 -123.943134 -49.098832 -158.259332 
206278968.750000 -38.260011 -137.100263 -0.138137 -126.143621 -0.131611 -126.226543 -48.966004 -156.556176 
210028950.000000 -38.384354 -138.913514 -0.144615 -128.468779 -0.136720 -128.500022 -49.041456 -158.621703 
213778931.250000 -38.531834 -140.929420 -0.143653 -130.724698 -0.141810 -130.798698 -49.006258 -158.140639 
217528912.500000 -38.631349 -142.067704 -0.141931 -132.996307 -0.141587 -133.076864 -49.177801 -159.110044 
221278893.750000 -38.789275 -143.983809 -0.140635 -135.311633 -0.147858 -135.334530 -49.077027 -157.482322 
225028875.000000 -38.808008 -145.342806 -0.147700 -137.563845 -0.139098 -137.649342 -48.644962 -158.009859 
228778856.250000 -38.943446 -146.738006 -0.149115 -139.866008 -0.148963 -139.936616 -48.829652 -156.930295 
232528837.500000 -39.065224 -148.481699 -0.153265 -142.133445 -0.153585 -142.217423 -48.742261 -156.861772 
236278818.750000 -39.049969 -149.755726 -0.146515 -144.430487 -0.140811 -144.518513 -48.666240 -156.655953 
240028800.000000 -39.245877 -151.569461 -0.154736 -146.693024 -0.148564 -146.728272 -48.282973 -156.119936 
243778781.250000 -39.413764 -152.924433 -0.152739 -148.972154 -0.152003 -149.053943 -48.251044 -156.832946 
247528762.500000 -39.442794 -154.771192 -0.151453 -151.279630 -0.156678 -151.350040 -48.103308 -155.746289 
251278743.750000 -39.547040 -155.828183 -0.162159 -153.584729 -0.154860 -153.688088 -47.905112 -156.312514 
255028725.000000 -39.615124 -157.582191 -0.158402 -155.877319 -0.148875 -155.893749 -47.604196 -156.509539 
258778706.250000 -39.770605 -158.847865 -0.159812 -158.152289 -0.155202 -158.172147 -47.513549 -156.803114 
262528687.500000 -39.885697 -160.920424 -0.164144 -160.381655 -0.155189 -160.470705 -47.295515 -156.991688 
266278668.750000 -39.949754 -162.365642 -0.163572 -162.712301 -0.162400 -162.759479 -47.079870 -157.753833 
270028650.000000 -40.031287 -164.073436 -0.166312 -164.978112 -0.163256 -165.013034 -46.878040 -158.647692 
273778631.250000 -40.070984 -165.921000 -0.164860 -167.257028 -0.163600 -167.317357 -46.785932 -159.139434 
277528612.500000 -40.139979 -166.983324 -0.162711 -169.486723 -0.162075 -169.581704 -46.587148 -159.308793 
281278593.750000 -40.185388 -168.661605 -0.166095 -171.816462 -0.162890 -171.869898 -46.489086 -160.374107 
285028575.000000 -40.226893 -170.835510 -0.162095 -174.103635 -0.170174 -174.133980 -46.406549 -161.960662 
288778556.250000 -40.247280 -172.339785 -0.166621 -176.400762 -0.173295 -176.476629 -46.376739 -162.792006 
292528537.500000 -40.266626 -174.531890 -0.166168 -178.638194 -0.168652 -178.730535 -46.278466 -164.524700 
296278518.750000 -40.271215 -176.324675 -0.162052 179.061130 -0.176713 178.981016 -46.357972 -164.888368 
300028500.000000 -40.247446 -178.552167 -0.170854 176.779515 -0.174143 176.721116 -46.177822 -166.737019 
303778481.250000 -40.269066 178.886807 -0.173883 174.506139 -0.176674 174.400382 -46.393278 -168.323728 
307528462.500000 -40.197979 177.231811 -0.179686 172.237969 -0.169096 172.083713 -46.296841 -169.944640 
311278443.750000 -40.103086 174.625853 -0.177999 169.932366 -0.174483 169.853125 -46.506571 -171.646389 
315028425.000000 -40.065291 172.366248 -0.176993 167.641137 -0.181513 167.552336 -46.498641 -172.309979 
318778406.250000 -40.044762 169.815756 -0.173972 165.342877 -0.181100 165.289969 -46.862229 -175.126871 
322528387.500000 -39.897298 167.701960 -0.180635 163.065804 -0.179324 163.006853 -46.841785 -175.505943 
326278368.750000 -39.819213 164.411864 -0.184967 160.792899 -0.182328 160.759251 -47.093773 -176.845206 
330028350.000000 -39.687894 161.488372 -0.194844 158.521354 -0.180349 158.468769 -47.403116 -178.846679 
333778331.250000 -39.554845 158.525862 -0.187505 156.252664 -0.185701 156.168099 -47.770894 179.344952 
337528312.500000 -39.471392 156.275824 -0.185098 153.919831 -0.184656 153.885458 -48.352938 177.883930 
341278293.750000 -39.259597 152.881801 -0.182869 151.645787 -0.184169 151.564007 -48.779991 178.575315 
345028275.000000 -39.123510 149.934680 -0.185403 149.431119 -0.192340 149.308492 -49.389832 176.450165 
348778256.250000 -38.894160 146.625500 -0.191702 147.089813 -0.187057 147.045787 -50.109125 175.121019 
352528237.500000 -38.789234 143.866390 -0.192022 144.831804 -0.188519 144.727792 -50.965261 175.234554 
356278218.750000 -38.535058 140.605199 -0.191419 142.529495 -0.197149 142.455401 -52.002389 174.292384 
360028200.000000 -38.424159 137.612879 -0.186073 140.215243 -0.202871 140.169450 -53.345435 175.152783 
363778181.250000 -38.174896 134.375253 -0.189771 137.983696 -0.194519 137.941016 -54.813403 176.575151 
367528162.500000 -38.014375 131.299213 -0.192532 135.664936 -0.198373 135.612252 -56.456947 -179.395857 
371278143.750000 -37.749026 128.029573 -0.192665 133.369055 -0.197176 133.347963 -57.684178 -162.056415 
375028125.000000 -37.540605 124.955259 -0.190448 131.119680 -0.201150 131.076840 -60.767207 -149.635079 
378778106.250000 -37.266953 121.695440 -0.209119 128.871004 -0.214040 128.770644 -61.604664 -122.530111 
382528087.500000 -37.083661 118.739353 -0.205926 126.559069 -0.203478 126.493643 -60.684057 -96.595215 
386278068.750000 -36.868384 115.652547 -0.197893 124.242269 -0.206186 124.231871 -57.153186 -80.502483 
390028050.000000 -36.609973 112.678471 -0.202960 121.969715 -0.206493 121.935726 -54.745348 -71.846364 
393778031.250000 -36.317525 109.303463 -0.204245 119.648739 -0.208288 119.659801 -53.105928 -69.130562 
397528012.500000 -36.108630 106.282268 -0.206299 117.458736 -0.204926 117.367313 -51.185900 -65.553586 
401277993.750000 -35.840046 103.643841 -0.205282 115.174156 -0.213177 115.109562 -49.643407 -66.779906 
405027975.000000 -35.643415 101.054248 -0.205940 112.896013 -0.205471 112.811161 -48.253560 -65.042015 
408777956.250000 -35.370208 97.686605 -0.205710 110.630018 -0.215918 110.511777 -47.119212 -68.072504 
412527937.500000 -35.087267 94.666985 -0.210773 108.299552 -0.210321 108.245742 -45.958832 -68.921979 
416277918.750000 -34.863386 92.057284 -0.211680 106.021196 -0.212283 105.981330 -45.040342 -69.097757 
420027900.000000 -34.682152 89.549724 -0.210545 103.777724 -0.211052 103.673424 -44.493278 -70.978801 
423777881.250000 -34.460911 86.766828 -0.214573 101.469861 -0.216502 101.443177 -43.502112 -72.640243 
427527862.500000 -34.258762 84.013441 -0.215212 99.198594 -0.217177 99.140765 -42.640133 -74.267192 
431277843.750000 -33.987588 81.073578 -0.214242 96.871600 -0.216466 96.824619 -42.132113 -75.914208 
435027825.000000 -33.773030 78.558738 -0.219328 94.622614 -0.216416 94.570705 -41.440245 -78.655283 
438777806.250000 -33.553676 75.641349 -0.214506 92.296484 -0.215896 92.291470 -40.924994 -80.659086 
442527787.500000 -33.310301 73.313112 -0.217403 90.051993 -0.220668 89.978478 -40.382738 -82.771575 
446277768.750000 -33.172039 70.791140 -0.222907 87.789266 -0.215331 87.705092 -39.894336 -85.144011 
450027750.000000 -32.945799 68.341823 -0.219465 85.501442 -0.226911 85.439962 -39.464094 -86.970202 
453777731.250000 -32.772275 65.681191 -0.221875 83.156657 -0.224230 83.165635 -39.075958 -88.867548 
457527712.500000 -32.588728 63.276708 -0.220089 80.945141 -0.226512 80.869317 -38.616670 -91.171992 
461277693.750000 -32.408577 60.541889 -0.219989 78.652786 -0.234160 78.553381 -38.214085 -93.563431 
465027675.000000 -32.214310 58.234742 -0.231034 76.390562 -0.227693 76.299844 -37.949945 -95.675383 
468777656.250000 -32.093584 56.039154 -0.228977 74.084195 -0.226286 74.022064 -37.584886 -98.066319 
472527637.500000 -31.922343 53.569059 -0.231950 71.820606 -0.237498 71.759397 -37.329811 -100.023807 
476277618.750000 -31.786912 51.014662 -0.233674 69.540240 -0.232602 69.439330 -37.085107 -102.141958 
480027600.000000 -31.654557 48.351530 -0.233408 67.233956 -0.244198 67.180652 -36.862151 -104.425936 
483777581.250000 -31.517779 46.117597 -0.233166 64.943610 -0.238457 64.899506 -36.621289 -106.816299 
487527562.500000 -31.392730 43.568406 -0.239275 62.656840 -0.231311 62.578845 -36.420735 -108.645510 
491277543.750000 -31.246834 40.996784 -0.237542 60.418275 -0.239198 60.292126 -36.231814 -111.122167 
495027525.000000 -31.150136 38.702321 -0.242682 58.152430 -0.236822 57.981665 -36.082661 -112.935799 
498777506.250000 -31.045646 36.203335 -0.238055 55.796543 -0.238595 55.750651 -35.935440 -115.306948 
502527487.500000 -30.984485 33.931608 -0.239659 53.590972 -0.244771 53.503474 -35.815046 -117.230690 
506277468.750000 -30.888735 31.400349 -0.242870 51.311548 -0.241570 51.203173 -35.667561 -119.470363 
510027450.000000 -30.813681 28.921531 -0.238080 49.039262 -0.246432 48.943698 -35.584801 -121.478956 
513777431.250000 -30.762104 26.904185 -0.242835 46.762508 -0.245189 46.668831 -35.417117 -123.692750 
517527412.500000 -30.678071 24.388912 -0.243404 44.412541 -0.243347 44.376940 -35.370779 -125.489590 
521277393.750000 -30.657789 21.940546 -0.238949 42.157142 -0.248326 42.120949 -35.349381 -127.694586 
525027375.000000 -30.609263 19.608441 -0.243811 39.901815 -0.253738 39.862738 -35.221346 -129.560196 
528777356.250000 -30.576063 17.045171 -0.247585 37.624096 -0.253011 37.583519 -35.221841 -131.790867 
532527337.500000 -30.546361 14.701229 -0.251596 35.373636 -0.259132 35.241141 -35.196664 -133.999826 
536277318.750000 -30.511239 12.247332 -0.251646 33.062049 -0.248489 32.988416 -35.151157 -135.771621 
540027300.000000 -30.493711 9.944622 -0.251265 30.820533 -0.256329 30.672817 -35.155464 -137.914432 
543777281.250000 -30.520202 7.473169 -0.257154 28.533989 -0.263089 28.424044 -35.195297 -139.598110 
547527262.500000 -30.522975 4.968469 -0.256533 26.247720 -0.253980 26.135087 -35.138383 -141.493293 
551277243.750000 -30.513765 2.528810 -0.260059 23.982611 -0.249688 23.897077 -35.155324 -143.565546 
555027225.000000 -30.532785 0.121257 -0.262178 21.692985 -0.260909 21.577230 -35.208777 -145.632507 
558777206.250000 -30.598627 -2.373922 -0.253921 19.394894 -0.255145 19.317579 -35.247103 -147.292886 
562527187.500000 -30.653007 -4.722028 -0.263604 17.082852 -0.254081 17.029660 -35.322953 -149.112267 
566277168.750000 -30.645866 -7.109779 -0.267185 14.850576 -0.251991 14.764452 -35.338916 -151.274031 
570027150.000000 -30.719454 -9.538546 -0.264946 12.534674 -0.253510 12.492097 -35.387488 -152.743806 
573777131.250000 -30.763229 -11.926358 -0.268541 10.284200 -0.256804 10.226236 -35.479304 -154.631584 
577527112.500000 -30.839516 -14.493241 -0.269063 7.939318 -0.257608 7.906964 -35.551583 -156.435115 
581277093.750000 -30.918142 -16.889088 -0.263066 5.686562 -0.265566 5.666464 -35.612550 -158.012457 
585027075.000000 -30.993419 -19.470339 -0.266235 3.427655 -0.264667 3.358416 -35.779626 -159.727996 
588777056.250000 -31.043983 -22.111874 -0.262164 1.180465 -0.258495 1.129518 -35.818660 -161.537291 
592527037.500000 -31.150098 -24.501255 -0.268089 -1.119944 -0.268631 -1.210205 -35.949774 -162.838804 
596277018.750000 -31.218617 -27.097652 -0.264089 -3.392499 -0.259915 -3.490136 -36.022238 -164.689404 
600027000.000000 -31.330629 -29.581010 -0.267554 -5.698571 -0.260938 -5.790198 -36.121100 -166.161322 
603776981.250000 -31.408187 -32.106188 -0.269774 -7.970932 -0.263765 -8.032729 -36.252511 -167.648669 
607526962.500000 -31.510646 -34.701786 -0.271207 -10.278223 -0.271133 -10.331308 -36.331624 -169.011793 
611276943.750000 -31.587487 -37.471076 -0.270816 -12.559918 -0.263929 -12.614439 -36.442257 -170.495334 
615026925.000000 -31.706173 -40.016669 -0.268387 -14.876935 -0.265150 -14.901109 -36.546708 -171.761894 
618776906.250000 -31.800206 -42.735585 -0.276691 -17.065967 -0.271879 -17.175151 -36.669467 -172.959048 
622526887.500000 -31.879616 -45.571922 -0.272998 -19.368472 -0.272140 -19.465955 -36.754629 -174.315974 
626276868.750000 -31.998388 -48.168143 -0.273486 -21.656655 -0.271885 -21.751492 -36.882375 -175.162832 
630026850.000000 -32.071568 -50.984977 -0.270576 -23.946371 -0.275012 -24.040369 -36.921993 -176.708844 
633776831.250000 -32.167653 -53.930723 -0.272356 -26.178556 -0.273976 -26.381049 -37.092395 -177.651573 
637526812.500000 -32.254828 -56.586406 -0.270055 -28.498175 -0.272471 -28.574605 -37.122282 -178.664040 
641276793.750000 -32.316555 -59.708323 -0.278631 -30.806456 -0.273023 -30.878968 -37.180634 -179.443096 
645026775.000000 -32.394559 -62.507472 -0.277133 -33.074724 -0.276198 -33.107332 -37.227318 179.559226 
648776756.250000 -32.491432 -65.383062 -0.277878 -35.328647 -0.283272 -35.446958 -37.266255 178.755416 
652526737.500000 -32.499044 -68.337209 -0.279575 -37.586428 -0.282444 -37.733352 -37.250340 177.686157 
656276718.750000 -32.561859 -71.475520 -0.279343 -39.919318 -0.280214 -40.013666 -37.264843 177.235181 
660026700.000000 -32.622336 -74.480893 -0.284457 -42.190802 -0.281482 -42.260811 -37.235303 176.201524 
663776681.250000 -32.655445 -77.623602 -0.279044 -44.479074 -0.288056 -44.560334 -37.175488 175.158833 
667526662.500000 -32.657320 -80.493704 -0.282838 -46.722086 -0.279313 -46.852962 -37.157416 174.559855 
671276643.750000 -32.661231 -83.830897 -0.281520 -49.050585 -0.288394 -49.097364 -37.040468 173.333415 
675026625.000000 -32.649769 -87.087138 -0.295049 -51.320134 -0.281313 -51.360218 -36.942517 172.244613 
678776606.250000 -32.666606 -90.258373 -0.288063 -53.559204 -0.286288 -53.662126 -36.843459 171.519581 
682526587.500000 -32.600263 -93.360849 -0.284727 -55.855416 -0.283895 -56.011796 -36.689942 170.314310 
686276568.750000 -32.536804 -96.362679 -0.289251 -58.120703 -0.287206 -58.256692 -36.525921 169.330843 
690026550.000000 -32.505434 -99.573762 -0.287490 -60.421906 -0.287698 -60.574804 -36.317290 167.887760 
693776531.250000 -32.398221 -102.825969 -0.288004 -62.701775 -0.289293 -62.805155 -36.115753 166.004431 
697526512.500000 -32.319845 -106.181935 -0.288647 -64.973497 -0.292546 -65.123057 -35.944509 164.758101 
701276493.750000 -32.256116 -109.146991 -0.295221 -67.274101 -0.300912 -67.378046 -35.773347 163.245098 
